Sample in Buffer,Sample in Window,TRIGGER,mac_phy_wrapper_i/mac_phy_i/system_ila_mac_phy2/inst/net_slot_0_axis_tdata[63:0],mac_phy_wrapper_i/mac_phy_i/system_ila_mac_phy2/inst/net_slot_0_axis_tkeep[7:0],mac_phy_wrapper_i/mac_phy_i/system_ila_mac_phy2/inst/net_slot_0_axis_tuser,mac_phy_wrapper_i/mac_phy_i/system_ila_mac_phy2/inst/net_slot_0_axis_tvalid,mac_phy_wrapper_i/mac_phy_i/system_ila_mac_phy2/inst/net_slot_0_axis_tready,mac_phy_wrapper_i/mac_phy_i/system_ila_mac_phy2/inst/net_slot_0_axis_tlast,mac_phy_wrapper_i/mac_phy_i/system_ila_mac_phy2/inst/net_slot_1_axis_tdata[63:0],mac_phy_wrapper_i/mac_phy_i/system_ila_mac_phy2/inst/net_slot_1_axis_tkeep[7:0],mac_phy_wrapper_i/mac_phy_i/system_ila_mac_phy2/inst/net_slot_1_axis_tuser,mac_phy_wrapper_i/mac_phy_i/system_ila_mac_phy2/inst/net_slot_1_axis_tvalid,mac_phy_wrapper_i/mac_phy_i/system_ila_mac_phy2/inst/net_slot_1_axis_tlast,mac_phy_wrapper_i/mac_phy_i/system_ila_mac_phy2/inst/net_slot_2_axis_tdata[63:0],mac_phy_wrapper_i/mac_phy_i/system_ila_mac_phy2/inst/net_slot_2_axis_tkeep[7:0],mac_phy_wrapper_i/mac_phy_i/system_ila_mac_phy2/inst/net_slot_2_axis_tuser,mac_phy_wrapper_i/mac_phy_i/system_ila_mac_phy2/inst/net_slot_2_axis_tvalid,mac_phy_wrapper_i/mac_phy_i/system_ila_mac_phy2/inst/net_slot_2_axis_tready,mac_phy_wrapper_i/mac_phy_i/system_ila_mac_phy2/inst/net_slot_2_axis_tlast,mac_phy_wrapper_i/mac_phy_i/system_ila_mac_phy2/inst/net_slot_3_axis_tdata[63:0],mac_phy_wrapper_i/mac_phy_i/system_ila_mac_phy2/inst/net_slot_3_axis_tkeep[7:0],mac_phy_wrapper_i/mac_phy_i/system_ila_mac_phy2/inst/net_slot_3_axis_tuser,mac_phy_wrapper_i/mac_phy_i/system_ila_mac_phy2/inst/net_slot_3_axis_tvalid,mac_phy_wrapper_i/mac_phy_i/system_ila_mac_phy2/inst/net_slot_3_axis_tlast,Interface_(i4:s0)_(s_axis_tx_0_1)[2:0],Interface_(i4:s1)_(mac_phy_ch0_m_axis_rx)[2:0],Interface_(i4:s2)_(s_axis_tx_1_1)[2:0],Interface_(i4:s3)_(mac_phy_ch1_m_axis_rx)[2:0],T_Channel_(i4:s0)_(s_axis_tx_0_1)[2:0],T_Channel_(i4:s1)_(mac_phy_ch0_m_axis_rx)[2:0],T_Channel_(i4:s2)_(s_axis_tx_1_1)[2:0],T_Channel_(i4:s3)_(mac_phy_ch1_m_axis_rx)[2:0]
Radix - UNSIGNED,UNSIGNED,UNSIGNED,HEX,HEX,HEX,HEX,HEX,HEX,HEX,HEX,HEX,HEX,HEX,HEX,HEX,HEX,HEX,HEX,HEX,HEX,HEX,HEX,HEX,HEX,HEX,HEX,HEX,HEX,HEX,HEX,HEX,HEX
0,0,0,9cbb9cbb9cbb9cbb,ff,0,1,1,0,0000000000000000,01,0,0,0,6c496c496c496c49,ff,0,1,1,0,0000070000000078,1f,0,0,0,"_","Inactive","_","Inactive","_","No Streams","_","No Streams"
1,1,0,9cbb9cbb9cbb9cbb,ff,0,1,1,0,0000000000000000,01,0,0,0,6c496c496c496c49,07,0,1,1,1,0000070000000078,1f,0,0,0,"Active","Inactive","Active","Inactive","Stream Beat","No Streams","Last Stream","No Streams"
2,2,0,9cbb9cbb9cbb9cbb,ff,0,1,1,0,0000000000000000,01,0,0,0,0000222200000000,ff,0,1,1,0,0000070000000078,1f,0,0,0,"Active","Inactive","Active","Inactive","Stream Beat","No Streams","Stream Beat","No Streams"
3,3,0,9cbb9cbb9cbb9cbb,ff,0,1,1,0,0000000000000000,01,0,0,0,6c4a7d0011110000,ff,0,1,1,0,0000070000000078,1f,0,0,0,"Active","Inactive","Active","Inactive","Stream Beat","No Streams","Stream Beat","No Streams"
4,4,0,9cbb9cbb9cbb9cbb,1f,0,1,1,1,0000000000000000,01,0,0,0,6c4a6c4a6c4a6c4a,ff,0,1,1,0,0000070000000078,1f,0,0,0,"Active","Inactive","Active","Inactive","Last Stream","No Streams","Stream Beat","No Streams"
5,5,0,0000222200000000,ff,0,1,1,0,0000000000000000,01,0,0,0,6c4a6c4a6c4a6c4a,ff,0,1,1,0,0000070000000078,1f,0,0,0,"Active","Inactive","Active","Inactive","Stream Beat","No Streams","Stream Beat","No Streams"
6,6,0,9cbc4f0011110000,ff,0,1,1,0,0000000000000000,01,0,0,0,6c4a6c4a6c4a6c4a,ff,0,1,0,0,0000070000000078,1f,0,0,0,"Active","Inactive","_","Inactive","Stream Beat","No Streams","_","No Streams"
7,7,0,9cbc9cbc9cbc9cbc,ff,0,1,1,0,0000000000000000,01,0,0,0,6c4a6c4a6c4a6c4a,ff,0,1,0,0,0000070000000078,1f,0,0,0,"Active","Inactive","_","Inactive","Stream Beat","No Streams","_","No Streams"
8,8,0,9cbc9cbc9cbc9cbc,ff,0,1,1,0,0000000000000000,01,0,0,0,6c4a6c4a6c4a6c4a,ff,0,1,0,0,0000070000000078,1f,0,0,0,"Active","Inactive","_","Inactive","Stream Beat","No Streams","_","No Streams"
9,9,0,9cbc9cbc9cbc9cbc,ff,0,1,0,0,0000000000000000,01,0,0,0,6c4a6c4a6c4a6c4a,ff,0,1,1,0,0000070000000078,1f,0,0,0,"_","Inactive","Active","Inactive","_","No Streams","Stream Beat","No Streams"
10,10,0,9cbc9cbc9cbc9cbc,ff,0,1,0,0,0000000000000000,01,0,0,0,6c4a6c4a6c4a6c4a,ff,0,1,1,0,0000070000000078,1f,0,0,0,"_","Inactive","Active","Inactive","_","No Streams","Stream Beat","No Streams"
11,11,0,9cbc9cbc9cbc9cbc,ff,0,1,0,0,0000000000000000,01,0,0,0,6c4a6c4a6c4a6c4a,ff,0,1,1,0,0000070000000078,1f,0,0,0,"_","Inactive","Active","Inactive","_","No Streams","Stream Beat","No Streams"
12,12,0,9cbc9cbc9cbc9cbc,ff,0,1,1,0,0000000000000000,01,0,0,0,6c4a6c4a6c4a6c4a,ff,0,1,1,0,0000070000000078,1f,0,0,0,"Active","Inactive","Active","Inactive","Stream Beat","No Streams","Stream Beat","No Streams"
13,13,0,9cbc9cbc9cbc9cbc,ff,0,1,1,0,0000000000000000,01,0,0,0,6c4a6c4a6c4a6c4a,ff,0,1,1,0,0000070000000078,1f,0,0,0,"Active","Inactive","Active","Inactive","Stream Beat","No Streams","Stream Beat","No Streams"
14,14,0,9cbc9cbc9cbc9cbc,ff,0,1,1,0,0000000000000000,01,0,0,0,6c4a6c4a6c4a6c4a,ff,0,1,1,0,0000070000000078,1f,0,0,0,"Active","Inactive","Active","Inactive","Stream Beat","No Streams","Stream Beat","No Streams"
15,15,0,9cbc9cbc9cbc9cbc,ff,0,1,1,0,0000000000000000,01,0,0,0,6c4a6c4a6c4a6c4a,ff,0,1,1,0,0000070000000078,1f,0,0,0,"Active","Inactive","Active","Inactive","Stream Beat","No Streams","Stream Beat","No Streams"
16,16,0,9cbc9cbc9cbc9cbc,ff,0,1,1,0,0000000000000000,01,0,0,0,6c4a6c4a6c4a6c4a,ff,0,1,1,0,0000070000000078,1f,0,0,0,"Active","Inactive","Active","Inactive","Stream Beat","No Streams","Stream Beat","No Streams"
17,17,0,9cbc9cbc9cbc9cbc,ff,0,1,1,0,0000000000000000,01,0,0,0,6c4a6c4a6c4a6c4a,ff,0,1,1,0,0000070000000078,1f,0,0,0,"Active","Inactive","Active","Inactive","Stream Beat","No Streams","Stream Beat","No Streams"
18,18,0,9cbc9cbc9cbc9cbc,ff,0,1,1,0,0000000000000000,01,0,0,0,6c4a6c4a6c4a6c4a,ff,0,1,1,0,0000070000000078,1f,0,0,0,"Active","Inactive","Active","Inactive","Stream Beat","No Streams","Stream Beat","No Streams"
19,19,0,9cbc9cbc9cbc9cbc,1f,0,1,1,1,0000000000000000,01,0,0,0,6c4a6c4a6c4a6c4a,ff,0,1,1,0,0000070000000078,1f,0,0,0,"Active","Inactive","Active","Inactive","Last Stream","No Streams","Stream Beat","No Streams"
20,20,0,0000222200000000,ff,0,1,1,0,0000000000000000,01,0,0,0,6c4a6c4a6c4a6c4a,ff,0,1,1,0,0000070000000078,1f,0,0,0,"Active","Inactive","Active","Inactive","Stream Beat","No Streams","Stream Beat","No Streams"
21,21,0,9cbd4f0011110000,ff,0,1,1,0,0000000000000000,01,0,0,0,6c4a6c4a6c4a6c4a,ff,0,1,1,0,0000070000000078,1f,0,0,0,"Active","Inactive","Active","Inactive","Stream Beat","No Streams","Stream Beat","No Streams"
22,22,0,9cbd9cbd9cbd9cbd,ff,0,1,1,0,0000000000000000,01,0,0,0,6c4a6c4a6c4a6c4a,07,0,1,1,1,0000070000000078,1f,0,0,0,"Active","Inactive","Active","Inactive","Stream Beat","No Streams","Last Stream","No Streams"
23,23,0,9cbd9cbd9cbd9cbd,ff,0,1,1,0,0000000000000000,01,0,0,0,0000222200000000,ff,0,1,1,0,0000070000000078,1f,0,0,0,"Active","Inactive","Active","Inactive","Stream Beat","No Streams","Stream Beat","No Streams"
24,24,0,9cbd9cbd9cbd9cbd,ff,0,1,0,0,0000000000000000,01,0,0,0,6c4b7d0011110000,ff,0,1,1,0,0000070000000078,1f,0,0,0,"_","Inactive","Active","Inactive","_","No Streams","Stream Beat","No Streams"
25,25,0,9cbd9cbd9cbd9cbd,ff,0,1,0,0,0000000000000000,01,0,0,0,6c4b6c4b6c4b6c4b,ff,0,1,1,0,0000070000000078,1f,0,0,0,"_","Inactive","Active","Inactive","_","No Streams","Stream Beat","No Streams"
26,26,0,9cbd9cbd9cbd9cbd,ff,0,1,0,0,0000000000000000,01,0,0,0,6c4b6c4b6c4b6c4b,ff,0,1,1,0,0000070000000078,1f,0,0,0,"_","Inactive","Active","Inactive","_","No Streams","Stream Beat","No Streams"
27,27,0,9cbd9cbd9cbd9cbd,ff,0,1,1,0,0000000000000000,01,0,0,0,6c4b6c4b6c4b6c4b,ff,0,1,0,0,0000070000000078,1f,0,0,0,"Active","Inactive","_","Inactive","Stream Beat","No Streams","_","No Streams"
28,28,0,9cbd9cbd9cbd9cbd,ff,0,1,1,0,0000000000000000,01,0,0,0,6c4b6c4b6c4b6c4b,ff,0,1,0,0,0000070000000078,1f,0,0,0,"Active","Inactive","_","Inactive","Stream Beat","No Streams","_","No Streams"
29,29,0,9cbd9cbd9cbd9cbd,ff,0,1,1,0,0000000000000000,01,0,0,0,6c4b6c4b6c4b6c4b,ff,0,1,1,0,0000070000000078,1f,0,0,0,"Active","Inactive","Active","Inactive","Stream Beat","No Streams","Stream Beat","No Streams"
30,30,0,9cbd9cbd9cbd9cbd,ff,0,1,1,0,0000000000000000,01,0,0,0,6c4b6c4b6c4b6c4b,ff,0,1,1,0,0000070000000078,1f,0,0,0,"Active","Inactive","Active","Inactive","Stream Beat","No Streams","Stream Beat","No Streams"
31,31,0,9cbd9cbd9cbd9cbd,ff,0,1,1,0,0000000000000000,01,0,0,0,6c4b6c4b6c4b6c4b,ff,0,1,1,0,0000070000000078,1f,0,0,0,"Active","Inactive","Active","Inactive","Stream Beat","No Streams","Stream Beat","No Streams"
32,32,0,9cbd9cbd9cbd9cbd,ff,0,1,1,0,0000000000000000,01,0,0,0,6c4b6c4b6c4b6c4b,ff,0,1,1,0,0000070000000078,1f,0,0,0,"Active","Inactive","Active","Inactive","Stream Beat","No Streams","Stream Beat","No Streams"
33,33,0,9cbd9cbd9cbd9cbd,ff,0,1,1,0,0000000000000000,01,0,0,0,6c4b6c4b6c4b6c4b,ff,0,1,1,0,0000070000000078,1f,0,0,0,"Active","Inactive","Active","Inactive","Stream Beat","No Streams","Stream Beat","No Streams"
34,34,0,9cbd9cbd9cbd9cbd,1f,0,1,1,1,0000000000000000,01,0,0,0,6c4b6c4b6c4b6c4b,ff,0,1,1,0,0000070000000078,1f,0,0,0,"Active","Inactive","Active","Inactive","Last Stream","No Streams","Stream Beat","No Streams"
35,35,0,0000222200000000,ff,0,1,1,0,0000000000000000,01,0,0,0,6c4b6c4b6c4b6c4b,ff,0,1,1,0,0000070000000078,1f,0,0,0,"Active","Inactive","Active","Inactive","Stream Beat","No Streams","Stream Beat","No Streams"
36,36,0,9cbe4f0011110000,ff,0,1,1,0,0000000000000000,01,0,0,0,6c4b6c4b6c4b6c4b,ff,0,1,1,0,0000070000000078,1f,0,0,0,"Active","Inactive","Active","Inactive","Stream Beat","No Streams","Stream Beat","No Streams"
37,37,0,9cbe9cbe9cbe9cbe,ff,0,1,1,0,0000000000000000,01,0,0,0,6c4b6c4b6c4b6c4b,ff,0,1,1,0,0000070000000078,1f,0,0,0,"Active","Inactive","Active","Inactive","Stream Beat","No Streams","Stream Beat","No Streams"
38,38,0,9cbe9cbe9cbe9cbe,ff,0,1,1,0,0000000000000000,01,0,0,0,6c4b6c4b6c4b6c4b,ff,0,1,1,0,0000070000000078,1f,0,0,0,"Active","Inactive","Active","Inactive","Stream Beat","No Streams","Stream Beat","No Streams"
39,39,0,9cbe9cbe9cbe9cbe,ff,0,1,0,0,0000000000000000,01,0,0,0,6c4b6c4b6c4b6c4b,ff,0,1,1,0,0000070000000078,1f,0,0,0,"_","Inactive","Active","Inactive","_","No Streams","Stream Beat","No Streams"
40,40,0,9cbe9cbe9cbe9cbe,ff,0,1,0,0,0000000000000000,01,0,0,0,6c4b6c4b6c4b6c4b,ff,0,1,1,0,0000070000000078,1f,0,0,0,"_","Inactive","Active","Inactive","_","No Streams","Stream Beat","No Streams"
41,41,0,9cbe9cbe9cbe9cbe,ff,0,1,0,0,0000000000000000,01,0,0,0,6c4b6c4b6c4b6c4b,ff,0,1,1,0,0000070000000078,1f,0,0,0,"_","Inactive","Active","Inactive","_","No Streams","Stream Beat","No Streams"
42,42,0,9cbe9cbe9cbe9cbe,ff,0,1,1,0,0000000000000000,01,0,0,0,6c4b6c4b6c4b6c4b,07,0,1,1,1,0000070000000078,1f,0,0,0,"Active","Inactive","Active","Inactive","Stream Beat","No Streams","Last Stream","No Streams"
43,43,0,9cbe9cbe9cbe9cbe,ff,0,1,1,0,0000000000000000,01,0,0,0,0000222200000000,ff,0,1,1,0,0000070000000078,1f,0,0,0,"Active","Inactive","Active","Inactive","Stream Beat","No Streams","Stream Beat","No Streams"
44,44,0,9cbe9cbe9cbe9cbe,ff,0,1,1,0,0000000000000000,01,0,0,0,6c4c7d0011110000,ff,0,1,1,0,0000070000000078,1f,0,0,0,"Active","Inactive","Active","Inactive","Stream Beat","No Streams","Stream Beat","No Streams"
45,45,0,9cbe9cbe9cbe9cbe,ff,0,1,1,0,0000000000000000,01,0,0,0,6c4c6c4c6c4c6c4c,ff,0,1,1,0,0000070000000078,1f,0,0,0,"Active","Inactive","Active","Inactive","Stream Beat","No Streams","Stream Beat","No Streams"
46,46,0,9cbe9cbe9cbe9cbe,ff,0,1,1,0,0000000000000000,01,0,0,0,6c4c6c4c6c4c6c4c,ff,0,1,1,0,0000070000000078,1f,0,0,0,"Active","Inactive","Active","Inactive","Stream Beat","No Streams","Stream Beat","No Streams"
47,47,0,9cbe9cbe9cbe9cbe,ff,0,1,1,0,0000000000000000,01,0,0,0,6c4c6c4c6c4c6c4c,ff,0,1,0,0,0000070000000078,1f,0,0,0,"Active","Inactive","_","Inactive","Stream Beat","No Streams","_","No Streams"
48,48,0,9cbe9cbe9cbe9cbe,ff,0,1,1,0,0000000000000000,01,0,0,0,6c4c6c4c6c4c6c4c,ff,0,1,0,0,0000070000000078,1f,0,0,0,"Active","Inactive","_","Inactive","Stream Beat","No Streams","_","No Streams"
49,49,0,9cbe9cbe9cbe9cbe,1f,0,1,1,1,0000000000000000,01,0,0,0,6c4c6c4c6c4c6c4c,ff,0,1,0,0,0000070000000078,1f,0,0,0,"Active","Inactive","_","Inactive","Last Stream","No Streams","_","No Streams"
50,50,0,0000222200000000,ff,0,1,1,0,0000000000000000,01,0,0,0,6c4c6c4c6c4c6c4c,ff,0,1,1,0,0000070000000078,1f,0,0,0,"Active","Inactive","Active","Inactive","Stream Beat","No Streams","Stream Beat","No Streams"
51,51,0,9cbf4f0011110000,ff,0,1,1,0,0000000000000000,01,0,0,0,6c4c6c4c6c4c6c4c,ff,0,1,1,0,0000070000000078,1f,0,0,0,"Active","Inactive","Active","Inactive","Stream Beat","No Streams","Stream Beat","No Streams"
52,52,0,9cbf9cbf9cbf9cbf,ff,0,1,1,0,0000000000000000,01,0,0,0,6c4c6c4c6c4c6c4c,ff,0,1,1,0,0000070000000078,1f,0,0,0,"Active","Inactive","Active","Inactive","Stream Beat","No Streams","Stream Beat","No Streams"
53,53,0,9cbf9cbf9cbf9cbf,ff,0,1,1,0,0000000000000000,01,0,0,0,6c4c6c4c6c4c6c4c,ff,0,1,1,0,0000070000000078,1f,0,0,0,"Active","Inactive","Active","Inactive","Stream Beat","No Streams","Stream Beat","No Streams"
54,54,0,9cbf9cbf9cbf9cbf,ff,0,1,0,0,0000000000000000,01,0,0,0,6c4c6c4c6c4c6c4c,ff,0,1,1,0,0000070000000078,1f,0,0,0,"_","Inactive","Active","Inactive","_","No Streams","Stream Beat","No Streams"
55,55,0,9cbf9cbf9cbf9cbf,ff,0,1,0,0,0000000000000000,01,0,0,0,6c4c6c4c6c4c6c4c,ff,0,1,1,0,0000070000000078,1f,0,0,0,"_","Inactive","Active","Inactive","_","No Streams","Stream Beat","No Streams"
56,56,0,9cbf9cbf9cbf9cbf,ff,0,1,0,0,0000000000000000,01,0,0,0,6c4c6c4c6c4c6c4c,ff,0,1,1,0,0000070000000078,1f,0,0,0,"_","Inactive","Active","Inactive","_","No Streams","Stream Beat","No Streams"
57,57,0,9cbf9cbf9cbf9cbf,ff,0,1,1,0,0000000000000000,01,0,0,0,6c4c6c4c6c4c6c4c,ff,0,1,1,0,0000070000000078,1f,0,0,0,"Active","Inactive","Active","Inactive","Stream Beat","No Streams","Stream Beat","No Streams"
58,58,0,9cbf9cbf9cbf9cbf,ff,0,1,1,0,0000000000000000,01,0,0,0,6c4c6c4c6c4c6c4c,ff,0,1,1,0,0000070000000078,1f,0,0,0,"Active","Inactive","Active","Inactive","Stream Beat","No Streams","Stream Beat","No Streams"
59,59,0,9cbf9cbf9cbf9cbf,ff,0,1,1,0,0000000000000000,01,0,0,0,6c4c6c4c6c4c6c4c,ff,0,1,1,0,0000070000000078,1f,0,0,0,"Active","Inactive","Active","Inactive","Stream Beat","No Streams","Stream Beat","No Streams"
60,60,0,9cbf9cbf9cbf9cbf,ff,0,1,1,0,0000000000000000,01,0,0,0,6c4c6c4c6c4c6c4c,ff,0,1,1,0,0000070000000078,1f,0,0,0,"Active","Inactive","Active","Inactive","Stream Beat","No Streams","Stream Beat","No Streams"
61,61,0,9cbf9cbf9cbf9cbf,ff,0,1,1,0,0000000000000000,01,0,0,0,6c4c6c4c6c4c6c4c,ff,0,1,1,0,0000070000000078,1f,0,0,0,"Active","Inactive","Active","Inactive","Stream Beat","No Streams","Stream Beat","No Streams"
62,62,0,9cbf9cbf9cbf9cbf,ff,0,1,1,0,0000000000000000,01,0,0,0,6c4c6c4c6c4c6c4c,ff,0,1,1,0,0000070000000078,1f,0,0,0,"Active","Inactive","Active","Inactive","Stream Beat","No Streams","Stream Beat","No Streams"
63,63,0,9cbf9cbf9cbf9cbf,ff,0,1,1,0,0000000000000000,01,0,0,0,6c4c6c4c6c4c6c4c,07,0,1,1,1,0000070000000078,1f,0,0,0,"Active","Inactive","Active","Inactive","Stream Beat","No Streams","Last Stream","No Streams"
64,64,0,9cbf9cbf9cbf9cbf,1f,0,1,1,1,0000000000000000,01,0,0,0,0000222200000000,ff,0,1,1,0,0000070000000078,1f,0,0,0,"Active","Inactive","Active","Inactive","Last Stream","No Streams","Stream Beat","No Streams"
65,65,0,0000222200000000,ff,0,1,1,0,0000000000000000,01,0,0,0,6c4d7d0011110000,ff,0,1,1,0,0000070000000078,1f,0,0,0,"Active","Inactive","Active","Inactive","Stream Beat","No Streams","Stream Beat","No Streams"
66,66,0,9cc04f0011110000,ff,0,1,1,0,0000000000000000,01,0,0,0,6c4d6c4d6c4d6c4d,ff,0,1,1,0,0000070000000078,1f,0,0,0,"Active","Inactive","Active","Inactive","Stream Beat","No Streams","Stream Beat","No Streams"
67,67,0,9cc09cc09cc09cc0,ff,0,1,1,0,0000000000000000,01,0,0,0,6c4d6c4d6c4d6c4d,ff,0,1,1,0,0000070000000078,1f,0,0,0,"Active","Inactive","Active","Inactive","Stream Beat","No Streams","Stream Beat","No Streams"
68,68,0,9cc09cc09cc09cc0,ff,0,1,1,0,0000000000000000,01,0,0,0,6c4d6c4d6c4d6c4d,ff,0,1,0,0,0000070000000078,1f,0,0,0,"Active","Inactive","_","Inactive","Stream Beat","No Streams","_","No Streams"
69,69,0,9cc09cc09cc09cc0,ff,0,1,0,0,0000000000000000,01,0,0,0,6c4d6c4d6c4d6c4d,ff,0,1,0,0,0000070000000078,1f,0,0,0,"_","Inactive","_","Inactive","_","No Streams","_","No Streams"
70,70,0,9cc09cc09cc09cc0,ff,0,1,0,0,0000000000000000,01,0,0,0,6c4d6c4d6c4d6c4d,ff,0,1,1,0,0000070000000078,1f,0,0,0,"_","Inactive","Active","Inactive","_","No Streams","Stream Beat","No Streams"
71,71,0,9cc09cc09cc09cc0,ff,0,1,0,0,0000000000000000,01,0,0,0,6c4d6c4d6c4d6c4d,ff,0,1,1,0,0000070000000078,1f,0,0,0,"_","Inactive","Active","Inactive","_","No Streams","Stream Beat","No Streams"
72,72,0,9cc09cc09cc09cc0,ff,0,1,1,0,0000000000000000,01,0,0,0,6c4d6c4d6c4d6c4d,ff,0,1,1,0,0000070000000078,1f,0,0,0,"Active","Inactive","Active","Inactive","Stream Beat","No Streams","Stream Beat","No Streams"
73,73,0,9cc09cc09cc09cc0,ff,0,1,1,0,0000000000000000,01,0,0,0,6c4d6c4d6c4d6c4d,ff,0,1,1,0,0000070000000078,1f,0,0,0,"Active","Inactive","Active","Inactive","Stream Beat","No Streams","Stream Beat","No Streams"
74,74,0,9cc09cc09cc09cc0,ff,0,1,1,0,0000000000000000,01,0,0,0,6c4d6c4d6c4d6c4d,ff,0,1,1,0,0000070000000078,1f,0,0,0,"Active","Inactive","Active","Inactive","Stream Beat","No Streams","Stream Beat","No Streams"
75,75,0,9cc09cc09cc09cc0,ff,0,1,1,0,0000000000000000,01,0,0,0,6c4d6c4d6c4d6c4d,ff,0,1,1,0,0000070000000078,1f,0,0,0,"Active","Inactive","Active","Inactive","Stream Beat","No Streams","Stream Beat","No Streams"
76,76,0,9cc09cc09cc09cc0,ff,0,1,1,0,0000000000000000,01,0,0,0,6c4d6c4d6c4d6c4d,ff,0,1,1,0,0000070000000078,1f,0,0,0,"Active","Inactive","Active","Inactive","Stream Beat","No Streams","Stream Beat","No Streams"
77,77,0,9cc09cc09cc09cc0,ff,0,1,1,0,0000000000000000,01,0,0,0,6c4d6c4d6c4d6c4d,ff,0,1,1,0,0000070000000078,1f,0,0,0,"Active","Inactive","Active","Inactive","Stream Beat","No Streams","Stream Beat","No Streams"
78,78,0,9cc09cc09cc09cc0,ff,0,1,1,0,0000000000000000,01,0,0,0,6c4d6c4d6c4d6c4d,ff,0,1,1,0,0000070000000078,1f,0,0,0,"Active","Inactive","Active","Inactive","Stream Beat","No Streams","Stream Beat","No Streams"
79,79,0,9cc09cc09cc09cc0,1f,0,1,1,1,0000000000000000,01,0,0,0,6c4d6c4d6c4d6c4d,ff,0,1,1,0,0000070000000078,1f,0,0,0,"Active","Inactive","Active","Inactive","Last Stream","No Streams","Stream Beat","No Streams"
80,80,0,0000222200000000,ff,0,1,1,0,0000000000000000,01,0,0,0,6c4d6c4d6c4d6c4d,ff,0,1,1,0,0000070000000078,1f,0,0,0,"Active","Inactive","Active","Inactive","Stream Beat","No Streams","Stream Beat","No Streams"
81,81,0,9cc14f0011110000,ff,0,1,1,0,0000000000000000,01,0,0,0,6c4d6c4d6c4d6c4d,ff,0,1,1,0,0000070000000078,1f,0,0,0,"Active","Inactive","Active","Inactive","Stream Beat","No Streams","Stream Beat","No Streams"
82,82,0,9cc19cc19cc19cc1,ff,0,1,1,0,0000000000000000,01,0,0,0,6c4d6c4d6c4d6c4d,ff,0,1,1,0,0000070000000078,1f,0,0,0,"Active","Inactive","Active","Inactive","Stream Beat","No Streams","Stream Beat","No Streams"
83,83,0,9cc19cc19cc19cc1,ff,0,1,1,0,0000000000000000,01,0,0,0,6c4d6c4d6c4d6c4d,07,0,1,1,1,0000070000000078,1f,0,0,0,"Active","Inactive","Active","Inactive","Stream Beat","No Streams","Last Stream","No Streams"
84,84,0,9cc19cc19cc19cc1,ff,0,1,0,0,0000000000000000,01,0,0,0,0000222200000000,ff,0,1,1,0,0000070000000078,1f,0,0,0,"_","Inactive","Active","Inactive","_","No Streams","Stream Beat","No Streams"
85,85,0,9cc19cc19cc19cc1,ff,0,1,0,0,0000000000000000,01,0,0,0,6c4e7d0011110000,ff,0,1,1,0,0000070000000078,1f,0,0,0,"_","Inactive","Active","Inactive","_","No Streams","Stream Beat","No Streams"
