Sample in Buffer,Sample in Window,TRIGGER,axi_stream_gen_mon_1/axi_stream_interface/tx_axis_tdata[63:0],axi_stream_gen_mon_1/axi_stream_interface/tx_axis_tkeep[7:0],axi_stream_gen_mon_1/axi_stream_interface/tx_axis_tvalid,axi_stream_gen_mon_1/axi_stream_interface/tx_axis_tlast,axi_stream_gen_mon_1/axi_stream_interface/tx_axis_tuser,axi_stream_gen_mon_1/axi_stream_interface/tx_axis_tready,axi_stream_gen_mon_1/axi_stream_interface/rx_axis_tdata[63:0],axi_stream_gen_mon_1/axi_stream_interface/rx_axis_tkeep[7:0],axi_stream_gen_mon_1/axi_stream_interface/rx_axis_tvalid,axi_stream_gen_mon_1/axi_stream_interface/rx_axis_tlast,axi_stream_gen_mon_1/axi_stream_interface/rx_axis_tuser,axi_stream_gen_mon_1/axi_stream_interface/rx_axis_tready,axi_stream_gen_mon_1/axi_stream_interface/bb_rx_axis_tdata[63:0],axi_stream_gen_mon_1/axi_stream_interface/bb_rx_axis_tkeep[7:0],axi_stream_gen_mon_1/axi_stream_interface/bb_rx_axis_tvalid,axi_stream_gen_mon_1/axi_stream_interface/bb_rx_axis_tlast,axi_stream_gen_mon_1/axi_stream_interface/bb_rx_axis_tuser,axi_stream_gen_mon_1/axi_stream_interface/bb_rx_axis_tready,axi_stream_gen_mon_1/axi_stream_interface/bb_tx_axis_tdata[63:0],axi_stream_gen_mon_1/axi_stream_interface/bb_tx_axis_tkeep[7:0],axi_stream_gen_mon_1/axi_stream_interface/bb_tx_axis_tvalid,axi_stream_gen_mon_1/axi_stream_interface/bb_tx_axis_tlast,axi_stream_gen_mon_1/axi_stream_interface/bb_tx_axis_tuser,axi_stream_gen_mon_1/axi_stream_interface/bb_tx_axis_tready
Radix - UNSIGNED,UNSIGNED,UNSIGNED,HEX,HEX,HEX,HEX,HEX,HEX,HEX,HEX,HEX,HEX,HEX,HEX,HEX,HEX,HEX,HEX,HEX,HEX,HEX,HEX,HEX,HEX,HEX,HEX
0,0,0,ab43ab43ab43ab43,ff,1,0,0,1,ab40ab40ab40ab40,ff,1,0,0,1,ab3fab3fab3fab3f,ff,1,0,0,1,0000222200000000,ff,1,0,0,1
1,1,0,ab43ab43ab43ab43,ff,1,0,0,0,ab40ab40ab40ab40,ff,1,0,0,1,ab3fab3fab3fab3f,ff,1,0,0,1,abb57d0011110000,ff,1,0,0,1
2,2,0,ab43ab43ab43ab43,ff,1,0,0,0,ab40ab40ab40ab40,ff,1,0,0,1,ab3fab3fab3fab3f,ff,1,0,0,1,abb5abb5abb5abb5,ff,1,0,0,0
3,3,0,ab43ab43ab43ab43,ff,1,0,0,1,ab40ab40ab40ab40,ff,1,0,0,1,ab3fab3fab3fab3f,ff,1,0,0,1,abb5abb5abb5abb5,ff,1,0,0,0
4,4,0,ab43ab43ab43ab43,ff,1,0,0,1,ab40ab40ab40ab40,ff,1,0,0,1,ab3fab3fab3fab3f,ff,1,0,0,1,abb5abb5abb5abb5,ff,1,0,0,1
5,5,0,ab43ab43ab43ab43,ff,1,0,0,1,ab40ab40ab40ab40,ff,1,0,0,1,ab3fab3fab3fab3f,ff,1,0,0,1,abb5abb5abb5abb5,ff,1,0,0,1
6,6,0,ab43ab43ab43ab43,ff,1,0,0,1,ab40ab40ab40ab40,ff,1,0,0,1,ab3fab3fab3fab3f,ff,1,0,0,1,abb5abb5abb5abb5,ff,1,0,0,1
7,7,0,ab43ab43ab43ab43,ff,1,0,0,1,ab40ab40ab40ab40,ff,1,0,0,1,ab3fab3fab3fab3f,ff,1,0,0,1,abb5abb5abb5abb5,ff,1,0,0,1
8,8,0,ab43ab43ab43ab43,ff,1,0,0,1,ab40ab40ab40ab40,ff,1,0,0,1,ab3fab3fab3fab3f,ff,1,0,0,1,abb5abb5abb5abb5,ff,1,0,0,1
9,9,0,ab43ab43ab43ab43,ff,1,0,0,1,ab40ab40ab40ab40,ff,1,0,0,1,ab3fab3fab3fab3f,ff,1,0,0,1,abb5abb5abb5abb5,ff,1,0,0,1
10,10,0,ab43ab43ab43ab43,ff,1,0,0,1,ab40ab40ab40ab40,ff,1,0,0,1,ab3fab3fab3fab3f,ff,1,0,0,1,abb5abb5abb5abb5,ff,1,0,0,1
11,11,0,ab43ab43ab43ab43,ff,1,0,0,1,ab40ab40ab40ab40,ff,1,0,0,1,ab3fab3fab3fab3f,ff,1,0,0,1,abb5abb5abb5abb5,ff,1,0,0,1
12,12,0,ab43ab43ab43ab43,ff,1,0,0,1,ab40ab40ab40ab40,ff,1,0,0,1,00ebc5b8ab3fab3f,07,1,1,1,1,abb5abb5abb5abb5,ff,1,0,0,1
13,13,0,ab43ab43ab43ab43,ff,1,0,0,1,00d813c44040ab40,07,1,1,1,1,0000222200000000,ff,0,0,0,1,abb5abb5abb5abb5,ff,1,0,0,1
14,14,0,ab43ab43ab43ab43,ff,1,0,0,1,5555550000000000,01,0,0,0,1,0000222200000000,ff,0,0,0,1,abb5abb5abb5abb5,ff,1,0,0,1
15,15,0,ab43ab43ab43ab43,ff,1,0,0,1,5555550000000000,01,0,0,0,1,0000222200000000,ff,0,0,0,1,abb5abb5abb5abb5,ff,1,0,0,1
16,16,0,ab43ab43ab43ab43,07,1,1,0,1,0000222200000000,ff,1,0,0,1,0000222200000000,ff,1,0,0,1,abb5abb5abb5abb5,ff,1,0,0,1
17,17,0,0000222200000000,ff,1,0,0,1,ab417d0011110000,ff,1,0,0,1,ab407d0011110000,ff,1,0,0,1,abb5abb5abb5abb5,ff,1,0,0,1
18,18,0,ab447d0011110000,ff,1,0,0,1,ab41ab41ab41ab41,ff,1,0,0,1,ab40ab40ab40ab40,ff,1,0,0,1,abb5abb5abb5abb5,ff,1,0,0,1
19,19,0,ab44ab44ab44ab44,ff,1,0,0,1,ab41ab41ab41ab41,ff,1,0,0,1,ab40ab40ab40ab40,ff,1,0,0,1,abb5abb5abb5abb5,07,1,1,0,1
20,20,0,ab44ab44ab44ab44,ff,1,0,0,1,ab41ab41ab41ab41,ff,1,0,0,1,ab40ab40ab40ab40,ff,1,0,0,1,0000222200000000,ff,1,0,0,1
21,21,0,ab44ab44ab44ab44,ff,1,0,0,0,ab41ab41ab41ab41,ff,1,0,0,1,ab40ab40ab40ab40,ff,1,0,0,1,abb67d0011110000,ff,1,0,0,1
22,22,0,ab44ab44ab44ab44,ff,1,0,0,0,ab41ab41ab41ab41,ff,1,0,0,1,ab40ab40ab40ab40,ff,1,0,0,1,abb6abb6abb6abb6,ff,1,0,0,0
23,23,0,ab44ab44ab44ab44,ff,1,0,0,0,ab41ab41ab41ab41,ff,1,0,0,1,ab40ab40ab40ab40,ff,1,0,0,1,abb6abb6abb6abb6,ff,1,0,0,0
24,24,0,ab44ab44ab44ab44,ff,1,0,0,1,ab41ab41ab41ab41,ff,1,0,0,1,ab40ab40ab40ab40,ff,1,0,0,1,abb6abb6abb6abb6,ff,1,0,0,0
25,25,0,ab44ab44ab44ab44,ff,1,0,0,1,ab41ab41ab41ab41,ff,1,0,0,1,ab40ab40ab40ab40,ff,1,0,0,1,abb6abb6abb6abb6,ff,1,0,0,1
26,26,0,ab44ab44ab44ab44,ff,1,0,0,1,ab41ab41ab41ab41,ff,1,0,0,1,ab40ab40ab40ab40,ff,1,0,0,1,abb6abb6abb6abb6,ff,1,0,0,1
27,27,0,ab44ab44ab44ab44,ff,1,0,0,1,ab41ab41ab41ab41,ff,1,0,0,1,ab40ab40ab40ab40,ff,1,0,0,1,abb6abb6abb6abb6,ff,1,0,0,1
28,28,0,ab44ab44ab44ab44,ff,1,0,0,1,ab41ab41ab41ab41,ff,1,0,0,1,ab40ab40ab40ab40,ff,1,0,0,1,abb6abb6abb6abb6,ff,1,0,0,1
29,29,0,ab44ab44ab44ab44,ff,1,0,0,1,ab41ab41ab41ab41,ff,1,0,0,1,ab40ab40ab40ab40,ff,1,0,0,1,abb6abb6abb6abb6,ff,1,0,0,1
30,30,0,ab44ab44ab44ab44,ff,1,0,0,1,ab41ab41ab41ab41,ff,1,0,0,1,ab40ab40ab40ab40,ff,1,0,0,1,abb6abb6abb6abb6,ff,1,0,0,1
31,31,0,ab44ab44ab44ab44,ff,1,0,0,1,ab41ab41ab41ab41,ff,1,0,0,1,ab40ab40ab40ab40,ff,1,0,0,1,abb6abb6abb6abb6,ff,1,0,0,1
32,32,0,ab44ab44ab44ab44,ff,1,0,0,1,ab41ab41ab41ab41,ff,1,0,0,1,ab40ab40ab40ab40,ff,1,0,0,1,abb6abb6abb6abb6,ff,1,0,0,1
33,33,0,ab44ab44ab44ab44,ff,1,0,0,1,0098e5d60841ab41,07,1,1,1,1,00d813c44040ab40,07,1,1,1,1,abb6abb6abb6abb6,ff,1,0,0,1
34,34,0,ab44ab44ab44ab44,ff,1,0,0,1,0000000000000000,07,0,0,0,1,0000222200000000,ff,0,0,0,1,abb6abb6abb6abb6,ff,1,0,0,1
35,35,0,ab44ab44ab44ab44,ff,1,0,0,1,0000000000000000,07,0,0,0,1,0000222200000000,ff,0,0,0,1,abb6abb6abb6abb6,ff,1,0,0,1
36,36,0,ab44ab44ab44ab44,ff,1,0,0,1,0000000000000000,07,0,0,0,1,0000222200000000,ff,1,0,0,1,abb6abb6abb6abb6,ff,1,0,0,1
37,37,0,ab44ab44ab44ab44,07,1,1,0,1,0000222200000000,ff,1,0,0,1,ab417d0011110000,ff,1,0,0,1,abb6abb6abb6abb6,ff,1,0,0,1
38,38,0,0000222200000000,ff,1,0,0,1,ab427d0011110000,ff,1,0,0,1,ab41ab41ab41ab41,ff,1,0,0,1,abb6abb6abb6abb6,ff,1,0,0,1
39,39,0,ab457d0011110000,ff,1,0,0,1,ab42ab42ab42ab42,ff,1,0,0,1,ab41ab41ab41ab41,ff,1,0,0,1,abb6abb6abb6abb6,ff,1,0,0,1
40,40,0,ab45ab45ab45ab45,ff,1,0,0,1,ab42ab42ab42ab42,ff,1,0,0,1,ab41ab41ab41ab41,ff,1,0,0,1,abb6abb6abb6abb6,07,1,1,0,1
41,41,0,ab45ab45ab45ab45,ff,1,0,0,1,ab42ab42ab42ab42,ff,1,0,0,1,ab41ab41ab41ab41,ff,1,0,0,1,0000222200000000,ff,1,0,0,1
42,42,0,ab45ab45ab45ab45,ff,1,0,0,0,ab42ab42ab42ab42,ff,1,0,0,1,ab41ab41ab41ab41,ff,1,0,0,1,abb77d0011110000,ff,1,0,0,1
43,43,0,ab45ab45ab45ab45,ff,1,0,0,0,ab42ab42ab42ab42,ff,1,0,0,1,ab41ab41ab41ab41,ff,1,0,0,1,abb7abb7abb7abb7,ff,1,0,0,0
44,44,0,ab45ab45ab45ab45,ff,1,0,0,1,ab42ab42ab42ab42,ff,1,0,0,1,ab41ab41ab41ab41,ff,1,0,0,1,abb7abb7abb7abb7,ff,1,0,0,0
45,45,0,ab45ab45ab45ab45,ff,1,0,0,1,ab42ab42ab42ab42,ff,1,0,0,1,ab41ab41ab41ab41,ff,1,0,0,1,abb7abb7abb7abb7,ff,1,0,0,1
46,46,0,ab45ab45ab45ab45,ff,1,0,0,1,ab42ab42ab42ab42,ff,1,0,0,1,ab41ab41ab41ab41,ff,1,0,0,1,abb7abb7abb7abb7,ff,1,0,0,1
47,47,0,ab45ab45ab45ab45,ff,1,0,0,1,ab42ab42ab42ab42,ff,1,0,0,1,ab41ab41ab41ab41,ff,1,0,0,1,abb7abb7abb7abb7,ff,1,0,0,1
48,48,0,ab45ab45ab45ab45,ff,1,0,0,1,ab42ab42ab42ab42,ff,1,0,0,1,ab41ab41ab41ab41,ff,1,0,0,1,abb7abb7abb7abb7,ff,1,0,0,1
49,49,0,ab45ab45ab45ab45,ff,1,0,0,1,ab42ab42ab42ab42,ff,1,0,0,1,ab41ab41ab41ab41,ff,1,0,0,1,abb7abb7abb7abb7,ff,1,0,0,1
50,50,0,ab45ab45ab45ab45,ff,1,0,0,1,ab42ab42ab42ab42,ff,1,0,0,1,ab41ab41ab41ab41,ff,1,0,0,1,abb7abb7abb7abb7,ff,1,0,0,1
51,51,0,ab45ab45ab45ab45,ff,1,0,0,1,ab42ab42ab42ab42,ff,1,0,0,1,ab41ab41ab41ab41,ff,1,0,0,1,abb7abb7abb7abb7,ff,1,0,0,1
52,52,0,ab45ab45ab45ab45,ff,1,0,0,1,ab42ab42ab42ab42,ff,1,0,0,1,ab41ab41ab41ab41,ff,1,0,0,1,abb7abb7abb7abb7,ff,1,0,0,1
53,53,0,ab45ab45ab45ab45,ff,1,0,0,1,ab42ab42ab42ab42,ff,1,0,0,1,0098e5d60841ab41,07,1,1,1,1,abb7abb7abb7abb7,ff,1,0,0,1
54,54,0,ab45ab45ab45ab45,ff,1,0,0,1,0059ffe0d042ab42,07,1,1,1,1,0000222200000000,ff,0,0,0,1,abb7abb7abb7abb7,ff,1,0,0,1
55,55,0,ab45ab45ab45ab45,ff,1,0,0,1,0000000000000000,07,0,0,0,1,0000222200000000,ff,0,0,0,1,abb7abb7abb7abb7,ff,1,0,0,1
56,56,0,ab45ab45ab45ab45,ff,1,0,0,1,0000000000000000,07,0,0,0,1,0000222200000000,ff,0,0,0,1,abb7abb7abb7abb7,ff,1,0,0,1
57,57,0,ab45ab45ab45ab45,07,1,1,0,1,0000000000000000,07,0,0,0,1,0000222200000000,ff,1,0,0,1,abb7abb7abb7abb7,ff,1,0,0,1
58,58,0,0000222200000000,ff,1,0,0,1,0000222200000000,ff,1,0,0,1,ab427d0011110000,ff,1,0,0,1,abb7abb7abb7abb7,ff,1,0,0,1
59,59,0,ab467d0011110000,ff,1,0,0,1,ab437d0011110000,ff,1,0,0,1,ab42ab42ab42ab42,ff,1,0,0,1,abb7abb7abb7abb7,ff,1,0,0,1
60,60,0,ab46ab46ab46ab46,ff,1,0,0,1,ab43ab43ab43ab43,ff,1,0,0,1,ab42ab42ab42ab42,ff,1,0,0,1,abb7abb7abb7abb7,07,1,1,0,1
61,61,0,ab46ab46ab46ab46,ff,1,0,0,1,ab43ab43ab43ab43,ff,1,0,0,1,ab42ab42ab42ab42,ff,1,0,0,1,0000222200000000,ff,1,0,0,1
62,62,0,ab46ab46ab46ab46,ff,1,0,0,0,ab43ab43ab43ab43,ff,1,0,0,1,ab42ab42ab42ab42,ff,1,0,0,1,abb87d0011110000,ff,1,0,0,1
63,63,0,ab46ab46ab46ab46,ff,1,0,0,0,ab43ab43ab43ab43,ff,1,0,0,1,ab42ab42ab42ab42,ff,1,0,0,1,abb8abb8abb8abb8,ff,1,0,0,0
64,64,0,ab46ab46ab46ab46,ff,1,0,0,0,ab43ab43ab43ab43,ff,1,0,0,1,ab42ab42ab42ab42,ff,1,0,0,1,abb8abb8abb8abb8,ff,1,0,0,0
65,65,0,ab46ab46ab46ab46,ff,1,0,0,1,ab43ab43ab43ab43,ff,1,0,0,1,ab42ab42ab42ab42,ff,1,0,0,1,abb8abb8abb8abb8,ff,1,0,0,0
66,66,0,ab46ab46ab46ab46,ff,1,0,0,1,ab43ab43ab43ab43,ff,1,0,0,1,ab42ab42ab42ab42,ff,1,0,0,1,abb8abb8abb8abb8,ff,1,0,0,1
67,67,0,ab46ab46ab46ab46,ff,1,0,0,1,ab43ab43ab43ab43,ff,1,0,0,1,ab42ab42ab42ab42,ff,1,0,0,1,abb8abb8abb8abb8,ff,1,0,0,1
68,68,0,ab46ab46ab46ab46,ff,1,0,0,1,ab43ab43ab43ab43,ff,1,0,0,1,ab42ab42ab42ab42,ff,1,0,0,1,abb8abb8abb8abb8,ff,1,0,0,1
69,69,0,ab46ab46ab46ab46,ff,1,0,0,1,ab43ab43ab43ab43,ff,1,0,0,1,ab42ab42ab42ab42,ff,1,0,0,1,abb8abb8abb8abb8,ff,1,0,0,1
70,70,0,ab46ab46ab46ab46,ff,1,0,0,1,ab43ab43ab43ab43,ff,1,0,0,1,ab42ab42ab42ab42,ff,1,0,0,1,abb8abb8abb8abb8,ff,1,0,0,1
71,71,0,ab46ab46ab46ab46,ff,1,0,0,1,ab43ab43ab43ab43,ff,1,0,0,1,ab42ab42ab42ab42,ff,1,0,0,1,abb8abb8abb8abb8,ff,1,0,0,1
72,72,0,ab46ab46ab46ab46,ff,1,0,0,1,ab43ab43ab43ab43,ff,1,0,0,1,ab42ab42ab42ab42,ff,1,0,0,1,abb8abb8abb8abb8,ff,1,0,0,1
73,73,0,ab46ab46ab46ab46,ff,1,0,0,1,ab43ab43ab43ab43,ff,1,0,0,1,ab42ab42ab42ab42,ff,1,0,0,1,abb8abb8abb8abb8,ff,1,0,0,1
74,74,0,ab46ab46ab46ab46,ff,1,0,0,1,ab43ab43ab43ab43,ff,1,0,0,1,0059ffe0d042ab42,07,1,1,1,1,abb8abb8abb8abb8,ff,1,0,0,1
75,75,0,ab46ab46ab46ab46,ff,1,0,0,1,001909f29843ab43,07,1,1,1,1,0000222200000000,ff,0,0,0,1,abb8abb8abb8abb8,ff,1,0,0,1
76,76,0,ab46ab46ab46ab46,ff,1,0,0,1,5555550000000000,01,0,0,0,1,0000222200000000,ff,0,0,0,1,abb8abb8abb8abb8,ff,1,0,0,1
77,77,0,ab46ab46ab46ab46,ff,1,0,0,1,5555550000000000,01,0,0,0,1,0000222200000000,ff,0,0,0,1,abb8abb8abb8abb8,ff,1,0,0,1
78,78,0,ab46ab46ab46ab46,07,1,1,0,1,0000222200000000,ff,1,0,0,1,0000222200000000,ff,1,0,0,1,abb8abb8abb8abb8,ff,1,0,0,1
79,79,0,0000222200000000,ff,1,0,0,1,ab447d0011110000,ff,1,0,0,1,ab437d0011110000,ff,1,0,0,1,abb8abb8abb8abb8,ff,1,0,0,1
80,80,0,ab477d0011110000,ff,1,0,0,1,ab44ab44ab44ab44,ff,1,0,0,1,ab43ab43ab43ab43,ff,1,0,0,1,abb8abb8abb8abb8,ff,1,0,0,1
81,81,0,ab47ab47ab47ab47,ff,1,0,0,1,ab44ab44ab44ab44,ff,1,0,0,1,ab43ab43ab43ab43,ff,1,0,0,1,abb8abb8abb8abb8,07,1,1,0,1
82,82,0,ab47ab47ab47ab47,ff,1,0,0,1,ab44ab44ab44ab44,ff,1,0,0,1,ab43ab43ab43ab43,ff,1,0,0,1,0000222200000000,ff,1,0,0,1
83,83,0,ab47ab47ab47ab47,ff,1,0,0,0,ab44ab44ab44ab44,ff,1,0,0,1,ab43ab43ab43ab43,ff,1,0,0,1,abb97d0011110000,ff,1,0,0,1
84,84,0,ab47ab47ab47ab47,ff,1,0,0,0,ab44ab44ab44ab44,ff,1,0,0,1,ab43ab43ab43ab43,ff,1,0,0,1,abb9abb9abb9abb9,ff,1,0,0,0
85,85,0,ab47ab47ab47ab47,ff,1,0,0,1,ab44ab44ab44ab44,ff,1,0,0,1,ab43ab43ab43ab43,ff,1,0,0,1,abb9abb9abb9abb9,ff,1,0,0,0
86,86,0,ab47ab47ab47ab47,ff,1,0,0,1,ab44ab44ab44ab44,ff,1,0,0,1,ab43ab43ab43ab43,ff,1,0,0,1,abb9abb9abb9abb9,ff,1,0,0,1
87,87,0,ab47ab47ab47ab47,ff,1,0,0,1,ab44ab44ab44ab44,ff,1,0,0,1,ab43ab43ab43ab43,ff,1,0,0,1,abb9abb9abb9abb9,ff,1,0,0,1
88,88,0,ab47ab47ab47ab47,ff,1,0,0,1,ab44ab44ab44ab44,ff,1,0,0,1,ab43ab43ab43ab43,ff,1,0,0,1,abb9abb9abb9abb9,ff,1,0,0,1
89,89,0,ab47ab47ab47ab47,ff,1,0,0,1,ab44ab44ab44ab44,ff,1,0,0,1,ab43ab43ab43ab43,ff,1,0,0,1,abb9abb9abb9abb9,ff,1,0,0,1
90,90,0,ab47ab47ab47ab47,ff,1,0,0,1,ab44ab44ab44ab44,ff,1,0,0,1,ab43ab43ab43ab43,ff,1,0,0,1,abb9abb9abb9abb9,ff,1,0,0,1
91,91,0,ab47ab47ab47ab47,ff,1,0,0,1,ab44ab44ab44ab44,ff,1,0,0,1,ab43ab43ab43ab43,ff,1,0,0,1,abb9abb9abb9abb9,ff,1,0,0,1
92,92,0,ab47ab47ab47ab47,ff,1,0,0,1,ab44ab44ab44ab44,ff,1,0,0,1,ab43ab43ab43ab43,ff,1,0,0,1,abb9abb9abb9abb9,ff,1,0,0,1
93,93,0,ab47ab47ab47ab47,ff,1,0,0,1,ab44ab44ab44ab44,ff,1,0,0,1,ab43ab43ab43ab43,ff,1,0,0,1,abb9abb9abb9abb9,ff,1,0,0,1
94,94,0,ab47ab47ab47ab47,ff,1,0,0,1,ab44ab44ab44ab44,ff,1,0,0,1,ab43ab43ab43ab43,ff,1,0,0,1,abb9abb9abb9abb9,ff,1,0,0,1
95,95,0,ab47ab47ab47ab47,ff,1,0,0,1,0000ba8b2144ab44,07,1,1,1,1,001909f29843ab43,07,1,1,1,1,abb9abb9abb9abb9,ff,1,0,0,1
96,96,0,ab47ab47ab47ab47,ff,1,0,0,1,0000000000000000,01,0,0,0,1,0000222200000000,ff,0,0,0,1,abb9abb9abb9abb9,ff,1,0,0,1
97,97,0,ab47ab47ab47ab47,ff,1,0,0,1,0000000000000000,01,0,0,0,1,0000222200000000,ff,0,0,0,1,abb9abb9abb9abb9,ff,1,0,0,1
98,98,0,ab47ab47ab47ab47,07,1,1,0,1,0000222200000000,ff,1,0,0,1,0000222200000000,ff,1,0,0,1,abb9abb9abb9abb9,ff,1,0,0,1
99,99,0,0000222200000000,ff,1,0,0,1,ab457d0011110000,ff,1,0,0,1,ab447d0011110000,ff,1,0,0,1,abb9abb9abb9abb9,ff,1,0,0,1
100,100,0,ab487d0011110000,ff,1,0,0,1,ab45ab45ab45ab45,ff,1,0,0,1,ab44ab44ab44ab44,ff,1,0,0,1,abb9abb9abb9abb9,ff,1,0,0,1
101,101,0,ab48ab48ab48ab48,ff,1,0,0,1,ab45ab45ab45ab45,ff,1,0,0,1,ab44ab44ab44ab44,ff,1,0,0,1,abb9abb9abb9abb9,07,1,1,0,1
102,102,0,ab48ab48ab48ab48,ff,1,0,0,1,ab45ab45ab45ab45,ff,1,0,0,1,ab44ab44ab44ab44,ff,1,0,0,1,0000222200000000,ff,1,0,0,1
103,103,0,ab48ab48ab48ab48,ff,1,0,0,0,ab45ab45ab45ab45,ff,1,0,0,1,ab44ab44ab44ab44,ff,1,0,0,1,abba7d0011110000,ff,1,0,0,1
104,104,0,ab48ab48ab48ab48,ff,1,0,0,0,ab45ab45ab45ab45,ff,1,0,0,1,ab44ab44ab44ab44,ff,1,0,0,1,abbaabbaabbaabba,ff,1,0,0,0
105,105,0,ab48ab48ab48ab48,ff,1,0,0,0,ab45ab45ab45ab45,ff,1,0,0,1,ab44ab44ab44ab44,ff,1,0,0,1,abbaabbaabbaabba,ff,1,0,0,0
106,106,0,ab48ab48ab48ab48,ff,1,0,0,1,ab45ab45ab45ab45,ff,1,0,0,1,ab44ab44ab44ab44,ff,1,0,0,1,abbaabbaabbaabba,ff,1,0,0,0
107,107,0,ab48ab48ab48ab48,ff,1,0,0,1,ab45ab45ab45ab45,ff,1,0,0,1,ab44ab44ab44ab44,ff,1,0,0,1,abbaabbaabbaabba,ff,1,0,0,1
108,108,0,ab48ab48ab48ab48,ff,1,0,0,1,ab45ab45ab45ab45,ff,1,0,0,1,ab44ab44ab44ab44,ff,1,0,0,1,abbaabbaabbaabba,ff,1,0,0,1
109,109,0,ab48ab48ab48ab48,ff,1,0,0,1,ab45ab45ab45ab45,ff,1,0,0,1,ab44ab44ab44ab44,ff,1,0,0,1,abbaabbaabbaabba,ff,1,0,0,1
110,110,0,ab48ab48ab48ab48,ff,1,0,0,1,ab45ab45ab45ab45,ff,1,0,0,1,ab44ab44ab44ab44,ff,1,0,0,1,abbaabbaabbaabba,ff,1,0,0,1
111,111,0,ab48ab48ab48ab48,ff,1,0,0,1,ab45ab45ab45ab45,ff,1,0,0,1,ab44ab44ab44ab44,ff,1,0,0,1,abbaabbaabbaabba,ff,1,0,0,1
112,112,0,ab48ab48ab48ab48,ff,1,0,0,1,ab45ab45ab45ab45,ff,1,0,0,1,ab44ab44ab44ab44,ff,1,0,0,1,abbaabbaabbaabba,ff,1,0,0,1
113,113,0,ab48ab48ab48ab48,ff,1,0,0,1,ab45ab45ab45ab45,ff,1,0,0,1,ab44ab44ab44ab44,ff,1,0,0,1,abbaabbaabbaabba,ff,1,0,0,1
114,114,0,ab48ab48ab48ab48,ff,1,0,0,1,ab45ab45ab45ab45,ff,1,0,0,1,ab44ab44ab44ab44,ff,1,0,0,1,abbaabbaabbaabba,ff,1,0,0,1
115,115,0,ab48ab48ab48ab48,ff,1,0,0,1,00404c996945ab45,07,1,1,1,1,0000ba8b2144ab44,07,1,1,1,1,abbaabbaabbaabba,ff,1,0,0,1
116,116,0,ab48ab48ab48ab48,ff,1,0,0,1,0000000000000000,07,0,0,0,1,0000222200000000,ff,0,0,0,1,abbaabbaabbaabba,ff,1,0,0,1
117,117,0,ab48ab48ab48ab48,ff,1,0,0,1,0000000000000000,07,0,0,0,1,0000222200000000,ff,0,0,0,1,abbaabbaabbaabba,ff,1,0,0,1
118,118,0,ab48ab48ab48ab48,ff,1,0,0,1,0000000000000000,07,0,0,0,1,0000222200000000,ff,1,0,0,1,abbaabbaabbaabba,ff,1,0,0,1
119,119,0,ab48ab48ab48ab48,07,1,1,0,1,0000222200000000,ff,1,0,0,1,ab457d0011110000,ff,1,0,0,1,abbaabbaabbaabba,ff,1,0,0,1
120,120,0,0000222200000000,ff,1,0,0,1,ab467d0011110000,ff,1,0,0,1,ab45ab45ab45ab45,ff,1,0,0,1,abbaabbaabbaabba,ff,1,0,0,1
121,121,0,ab497d0011110000,ff,1,0,0,1,ab46ab46ab46ab46,ff,1,0,0,1,ab45ab45ab45ab45,ff,1,0,0,1,abbaabbaabbaabba,ff,1,0,0,1
122,122,0,ab49ab49ab49ab49,ff,1,0,0,1,ab46ab46ab46ab46,ff,1,0,0,1,ab45ab45ab45ab45,ff,1,0,0,1,abbaabbaabbaabba,07,1,1,0,1
123,123,0,ab49ab49ab49ab49,ff,1,0,0,1,ab46ab46ab46ab46,ff,1,0,0,1,ab45ab45ab45ab45,ff,1,0,0,1,0000222200000000,ff,1,0,0,1
124,124,0,ab49ab49ab49ab49,ff,1,0,0,0,ab46ab46ab46ab46,ff,1,0,0,1,ab45ab45ab45ab45,ff,1,0,0,1,abbb7d0011110000,ff,1,0,0,1
125,125,0,ab49ab49ab49ab49,ff,1,0,0,0,ab46ab46ab46ab46,ff,1,0,0,1,ab45ab45ab45ab45,ff,1,0,0,1,abbbabbbabbbabbb,ff,1,0,0,0
126,126,0,ab49ab49ab49ab49,ff,1,0,0,1,ab46ab46ab46ab46,ff,1,0,0,1,ab45ab45ab45ab45,ff,1,0,0,1,abbbabbbabbbabbb,ff,1,0,0,0
127,127,0,ab49ab49ab49ab49,ff,1,0,0,1,ab46ab46ab46ab46,ff,1,0,0,1,ab45ab45ab45ab45,ff,1,0,0,1,abbbabbbabbbabbb,ff,1,0,0,1
128,128,0,ab49ab49ab49ab49,ff,1,0,0,1,ab46ab46ab46ab46,ff,1,0,0,1,ab45ab45ab45ab45,ff,1,0,0,1,abbbabbbabbbabbb,ff,1,0,0,1
129,129,0,ab49ab49ab49ab49,ff,1,0,0,1,ab46ab46ab46ab46,ff,1,0,0,1,ab45ab45ab45ab45,ff,1,0,0,1,abbbabbbabbbabbb,ff,1,0,0,1
130,130,0,ab49ab49ab49ab49,ff,1,0,0,1,ab46ab46ab46ab46,ff,1,0,0,1,ab45ab45ab45ab45,ff,1,0,0,1,abbbabbbabbbabbb,ff,1,0,0,1
131,131,0,ab49ab49ab49ab49,ff,1,0,0,1,ab46ab46ab46ab46,ff,1,0,0,1,ab45ab45ab45ab45,ff,1,0,0,1,abbbabbbabbbabbb,ff,1,0,0,1
132,132,0,ab49ab49ab49ab49,ff,1,0,0,1,ab46ab46ab46ab46,ff,1,0,0,1,ab45ab45ab45ab45,ff,1,0,0,1,abbbabbbabbbabbb,ff,1,0,0,1
133,133,0,ab49ab49ab49ab49,ff,1,0,0,1,ab46ab46ab46ab46,ff,1,0,0,1,ab45ab45ab45ab45,ff,1,0,0,1,abbbabbbabbbabbb,ff,1,0,0,1
134,134,0,ab49ab49ab49ab49,ff,1,0,0,1,ab46ab46ab46ab46,ff,1,0,0,1,ab45ab45ab45ab45,ff,1,0,0,1,abbbabbbabbbabbb,ff,1,0,0,1
135,135,0,ab49ab49ab49ab49,ff,1,0,0,1,ab46ab46ab46ab46,ff,1,0,0,1,00404c996945ab45,07,1,1,1,1,abbbabbbabbbabbb,ff,1,0,0,1
136,136,0,ab49ab49ab49ab49,ff,1,0,0,1,008156afb146ab46,07,1,1,1,1,0000222200000000,ff,0,0,0,1,abbbabbbabbbabbb,ff,1,0,0,1
137,137,0,ab49ab49ab49ab49,ff,1,0,0,1,5555550000000000,01,0,0,0,1,0000222200000000,ff,0,0,0,1,abbbabbbabbbabbb,ff,1,0,0,1
138,138,0,ab49ab49ab49ab49,ff,1,0,0,1,5555550000000000,01,0,0,0,1,0000222200000000,ff,0,0,0,1,abbbabbbabbbabbb,ff,1,0,0,1
139,139,0,ab49ab49ab49ab49,07,1,1,0,1,0000222200000000,ff,1,0,0,1,0000222200000000,ff,1,0,0,1,abbbabbbabbbabbb,ff,1,0,0,1
140,140,0,0000222200000000,ff,1,0,0,1,ab477d0011110000,ff,1,0,0,1,ab467d0011110000,ff,1,0,0,1,abbbabbbabbbabbb,ff,1,0,0,1
141,141,0,ab4a7d0011110000,ff,1,0,0,1,ab47ab47ab47ab47,ff,1,0,0,1,ab46ab46ab46ab46,ff,1,0,0,1,abbbabbbabbbabbb,ff,1,0,0,1
142,142,0,ab4aab4aab4aab4a,ff,1,0,0,1,ab47ab47ab47ab47,ff,1,0,0,1,ab46ab46ab46ab46,ff,1,0,0,1,abbbabbbabbbabbb,07,1,1,0,1
143,143,0,ab4aab4aab4aab4a,ff,1,0,0,1,ab47ab47ab47ab47,ff,1,0,0,1,ab46ab46ab46ab46,ff,1,0,0,1,0000222200000000,ff,1,0,0,1
144,144,0,ab4aab4aab4aab4a,ff,1,0,0,0,ab47ab47ab47ab47,ff,1,0,0,1,ab46ab46ab46ab46,ff,1,0,0,1,abbc7d0011110000,ff,1,0,0,1
145,145,0,ab4aab4aab4aab4a,ff,1,0,0,0,ab47ab47ab47ab47,ff,1,0,0,1,ab46ab46ab46ab46,ff,1,0,0,1,abbcabbcabbcabbc,ff,1,0,0,0
146,146,0,ab4aab4aab4aab4a,ff,1,0,0,0,ab47ab47ab47ab47,ff,1,0,0,1,ab46ab46ab46ab46,ff,1,0,0,1,abbcabbcabbcabbc,ff,1,0,0,0
147,147,0,ab4aab4aab4aab4a,ff,1,0,0,1,ab47ab47ab47ab47,ff,1,0,0,1,ab46ab46ab46ab46,ff,1,0,0,1,abbcabbcabbcabbc,ff,1,0,0,0
148,148,0,ab4aab4aab4aab4a,ff,1,0,0,1,ab47ab47ab47ab47,ff,1,0,0,1,ab46ab46ab46ab46,ff,1,0,0,1,abbcabbcabbcabbc,ff,1,0,0,1
149,149,0,ab4aab4aab4aab4a,ff,1,0,0,1,ab47ab47ab47ab47,ff,1,0,0,1,ab46ab46ab46ab46,ff,1,0,0,1,abbcabbcabbcabbc,ff,1,0,0,1
150,150,0,ab4aab4aab4aab4a,ff,1,0,0,1,ab47ab47ab47ab47,ff,1,0,0,1,ab46ab46ab46ab46,ff,1,0,0,1,abbcabbcabbcabbc,ff,1,0,0,1
