Sample in Buffer,Sample in Window,TRIGGER,axi_stream_gen_mon_0/axi_stream_interface/tx_axis_tdata[63:0],axi_stream_gen_mon_0/axi_stream_interface/tx_axis_tkeep[7:0],axi_stream_gen_mon_0/axi_stream_interface/tx_axis_tvalid,axi_stream_gen_mon_0/axi_stream_interface/tx_axis_tlast,axi_stream_gen_mon_0/axi_stream_interface/tx_axis_tuser,axi_stream_gen_mon_0/axi_stream_interface/tx_axis_tready,axi_stream_gen_mon_0/axi_stream_interface/rx_axis_tdata[63:0],axi_stream_gen_mon_0/axi_stream_interface/rx_axis_tkeep[7:0],axi_stream_gen_mon_0/axi_stream_interface/rx_axis_tvalid,axi_stream_gen_mon_0/axi_stream_interface/rx_axis_tlast,axi_stream_gen_mon_0/axi_stream_interface/rx_axis_tuser,axi_stream_gen_mon_0/axi_stream_interface/rx_axis_tready,axi_stream_gen_mon_0/axi_stream_interface/bb_rx_axis_tdata[63:0],axi_stream_gen_mon_0/axi_stream_interface/bb_rx_axis_tkeep[7:0],axi_stream_gen_mon_0/axi_stream_interface/bb_rx_axis_tvalid,axi_stream_gen_mon_0/axi_stream_interface/bb_rx_axis_tlast,axi_stream_gen_mon_0/axi_stream_interface/bb_rx_axis_tuser,axi_stream_gen_mon_0/axi_stream_interface/bb_rx_axis_tready,axi_stream_gen_mon_0/axi_stream_interface/bb_tx_axis_tdata[63:0],axi_stream_gen_mon_0/axi_stream_interface/bb_tx_axis_tkeep[7:0],axi_stream_gen_mon_0/axi_stream_interface/bb_tx_axis_tvalid,axi_stream_gen_mon_0/axi_stream_interface/bb_tx_axis_tlast,axi_stream_gen_mon_0/axi_stream_interface/bb_tx_axis_tuser,axi_stream_gen_mon_0/axi_stream_interface/bb_tx_axis_tready
Radix - UNSIGNED,UNSIGNED,UNSIGNED,HEX,HEX,HEX,HEX,HEX,HEX,HEX,HEX,HEX,HEX,HEX,HEX,HEX,HEX,HEX,HEX,HEX,HEX,HEX,HEX,HEX,HEX,HEX,HEX
0,0,0,f4c0f4c0f4c0f4c0,ff,1,0,0,1,f4bcf4bcf4bcf4bc,ff,1,0,0,1,f4bbf4bbf4bbf4bb,ff,1,0,0,1,f56bf56bf56bf56b,ff,1,0,0,1
1,1,0,f4c0f4c0f4c0f4c0,ff,1,0,0,1,f4bcf4bcf4bcf4bc,ff,1,0,0,1,f4bbf4bbf4bbf4bb,ff,1,0,0,1,f56bf56bf56bf56b,ff,1,0,0,1
2,2,0,f4c0f4c0f4c0f4c0,ff,1,0,0,1,f4bcf4bcf4bcf4bc,ff,1,0,0,1,46ae55bbf4bbf4bb,1f,1,1,1,1,f56bf56bf56bf56b,ff,1,0,0,1
3,3,0,f4c0f4c0f4c0f4c0,ff,1,0,0,1,ffd364bcf4bcf4bc,1f,1,1,1,1,0000222200000000,ff,0,0,0,1,f56bf56bf56bf56b,ff,1,0,0,1
4,4,0,f4c0f4c0f4c0f4c0,1f,1,1,0,1,0000000000000013,1f,0,0,0,1,0000222200000000,ff,0,0,0,1,f56bf56bf56bf56b,ff,1,0,0,1
5,5,0,0000222200000000,ff,1,0,0,1,0000000000000013,1f,0,0,0,1,0000222200000000,ff,0,0,0,1,f56bf56bf56bf56b,ff,1,0,0,1
6,6,0,f4c14f0011110000,ff,1,0,0,1,0000000000000013,1f,0,0,0,1,0000222200000000,ff,1,0,0,1,f56bf56bf56bf56b,ff,1,0,0,1
7,7,0,f4c1f4c1f4c1f4c1,ff,1,0,0,1,0000222200000000,ff,1,0,0,1,f4bc4f0011110000,ff,1,0,0,1,f56bf56bf56bf56b,1f,1,1,0,1
8,8,0,f4c1f4c1f4c1f4c1,ff,1,0,0,1,f4bd4f0011110000,ff,1,0,0,1,f4bcf4bcf4bcf4bc,ff,1,0,0,1,0000222200000000,ff,1,0,0,1
9,9,0,f4c1f4c1f4c1f4c1,ff,1,0,0,0,f4bdf4bdf4bdf4bd,ff,1,0,0,1,f4bcf4bcf4bcf4bc,ff,1,0,0,1,f56c4f0011110000,ff,1,0,0,1
10,10,0,f4c1f4c1f4c1f4c1,ff,1,0,0,0,f4bdf4bdf4bdf4bd,ff,1,0,0,1,f4bcf4bcf4bcf4bc,ff,1,0,0,1,f56cf56cf56cf56c,ff,1,0,0,0
11,11,0,f4c1f4c1f4c1f4c1,ff,1,0,0,0,f4bdf4bdf4bdf4bd,ff,1,0,0,1,f4bcf4bcf4bcf4bc,ff,1,0,0,1,f56cf56cf56cf56c,ff,1,0,0,0
12,12,0,f4c1f4c1f4c1f4c1,ff,1,0,0,1,f4bdf4bdf4bdf4bd,ff,1,0,0,1,f4bcf4bcf4bcf4bc,ff,1,0,0,1,f56cf56cf56cf56c,ff,1,0,0,0
13,13,0,f4c1f4c1f4c1f4c1,ff,1,0,0,1,f4bdf4bdf4bdf4bd,ff,1,0,0,1,f4bcf4bcf4bcf4bc,ff,1,0,0,1,f56cf56cf56cf56c,ff,1,0,0,1
14,14,0,f4c1f4c1f4c1f4c1,ff,1,0,0,1,f4bdf4bdf4bdf4bd,ff,1,0,0,1,f4bcf4bcf4bcf4bc,ff,1,0,0,1,f56cf56cf56cf56c,ff,1,0,0,1
15,15,0,f4c1f4c1f4c1f4c1,ff,1,0,0,1,f4bdf4bdf4bdf4bd,ff,1,0,0,1,f4bcf4bcf4bcf4bc,ff,1,0,0,1,f56cf56cf56cf56c,ff,1,0,0,1
16,16,0,f4c1f4c1f4c1f4c1,ff,1,0,0,1,f4bdf4bdf4bdf4bd,ff,1,0,0,1,f4bcf4bcf4bcf4bc,ff,1,0,0,1,f56cf56cf56cf56c,ff,1,0,0,1
17,17,0,f4c1f4c1f4c1f4c1,ff,1,0,0,1,f4bdf4bdf4bdf4bd,ff,1,0,0,1,ffd364bcf4bcf4bc,1f,1,1,1,1,f56cf56cf56cf56c,ff,1,0,0,1
18,18,0,f4c1f4c1f4c1f4c1,ff,1,0,0,1,77ac6fbdf4bdf4bd,1f,1,1,1,1,0000222200000000,ff,0,0,0,1,f56cf56cf56cf56c,ff,1,0,0,1
19,19,0,f4c1f4c1f4c1f4c1,1f,1,1,0,1,000000000000002a,1f,0,0,0,1,0000222200000000,ff,0,0,0,1,f56cf56cf56cf56c,ff,1,0,0,1
20,20,0,0000222200000000,ff,1,0,0,1,000000000000002a,1f,0,0,0,1,0000222200000000,ff,0,0,0,1,f56cf56cf56cf56c,ff,1,0,0,1
21,21,0,f4c24f0011110000,ff,1,0,0,1,000000000000002a,1f,0,0,0,1,0000222200000000,ff,1,0,0,1,f56cf56cf56cf56c,ff,1,0,0,1
22,22,0,f4c2f4c2f4c2f4c2,ff,1,0,0,1,000000000000002a,1f,0,0,0,1,f4bd4f0011110000,ff,1,0,0,1,f56cf56cf56cf56c,1f,1,1,0,1
23,23,0,f4c2f4c2f4c2f4c2,ff,1,0,0,1,0000222200000000,ff,1,0,0,1,f4bdf4bdf4bdf4bd,ff,1,0,0,1,0000222200000000,ff,1,0,0,1
24,24,0,f4c2f4c2f4c2f4c2,ff,1,0,0,0,f4be4f0011110000,ff,1,0,0,1,f4bdf4bdf4bdf4bd,ff,1,0,0,1,f56d4f0011110000,ff,1,0,0,1
25,25,0,f4c2f4c2f4c2f4c2,ff,1,0,0,0,f4bef4bef4bef4be,ff,1,0,0,1,f4bdf4bdf4bdf4bd,ff,1,0,0,1,f56df56df56df56d,ff,1,0,0,0
26,26,0,f4c2f4c2f4c2f4c2,ff,1,0,0,0,f4bef4bef4bef4be,ff,1,0,0,1,f4bdf4bdf4bdf4bd,ff,1,0,0,1,f56df56df56df56d,ff,1,0,0,0
27,27,0,f4c2f4c2f4c2f4c2,ff,1,0,0,1,f4bef4bef4bef4be,ff,1,0,0,1,f4bdf4bdf4bdf4bd,ff,1,0,0,1,f56df56df56df56d,ff,1,0,0,0
28,28,0,f4c2f4c2f4c2f4c2,ff,1,0,0,1,f4bef4bef4bef4be,ff,1,0,0,1,f4bdf4bdf4bdf4bd,ff,1,0,0,1,f56df56df56df56d,ff,1,0,0,1
29,29,0,f4c2f4c2f4c2f4c2,ff,1,0,0,1,f4bef4bef4bef4be,ff,1,0,0,1,f4bdf4bdf4bdf4bd,ff,1,0,0,1,f56df56df56df56d,ff,1,0,0,1
30,30,0,f4c2f4c2f4c2f4c2,ff,1,0,0,1,f4bef4bef4bef4be,ff,1,0,0,1,f4bdf4bdf4bdf4bd,ff,1,0,0,1,f56df56df56df56d,ff,1,0,0,1
31,31,0,f4c2f4c2f4c2f4c2,ff,1,0,0,1,f4bef4bef4bef4be,ff,1,0,0,1,f4bdf4bdf4bdf4bd,ff,1,0,0,1,f56df56df56df56d,ff,1,0,0,1
32,32,0,f4c2f4c2f4c2f4c2,ff,1,0,0,1,f4bef4bef4bef4be,ff,1,0,0,1,77ac6fbdf4bdf4bd,1f,1,1,1,1,f56df56df56df56d,ff,1,0,0,1
33,33,0,f4c2f4c2f4c2f4c2,ff,1,0,0,1,f4bef4bef4bef4be,ff,1,0,0,1,0000222200000000,ff,0,0,0,1,f56df56df56df56d,ff,1,0,0,1
34,34,0,f4c2f4c2f4c2f4c2,1f,1,1,0,1,ef2d72bef4bef4be,1f,1,1,1,1,0000222200000000,ff,0,0,0,1,f56df56df56df56d,ff,1,0,0,1
35,35,0,0000222200000000,ff,1,0,0,1,0000000000000060,01,0,0,0,1,0000222200000000,ff,0,0,0,1,f56df56df56df56d,ff,1,0,0,1
36,36,0,f4c34f0011110000,ff,1,0,0,1,0000000000000060,01,0,0,0,1,0000222200000000,ff,0,0,0,1,f56df56df56df56d,ff,1,0,0,1
37,37,0,f4c3f4c3f4c3f4c3,ff,1,0,0,1,0000222200000000,ff,1,0,0,1,0000222200000000,ff,1,0,0,1,f56df56df56df56d,1f,1,1,0,1
38,38,0,f4c3f4c3f4c3f4c3,ff,1,0,0,1,f4bf4f0011110000,ff,1,0,0,1,f4be4f0011110000,ff,1,0,0,1,0000222200000000,ff,1,0,0,1
39,39,0,f4c3f4c3f4c3f4c3,ff,1,0,0,0,f4bff4bff4bff4bf,ff,1,0,0,1,f4bef4bef4bef4be,ff,1,0,0,1,f56e4f0011110000,ff,1,0,0,1
40,40,0,f4c3f4c3f4c3f4c3,ff,1,0,0,0,f4bff4bff4bff4bf,ff,1,0,0,1,f4bef4bef4bef4be,ff,1,0,0,1,f56ef56ef56ef56e,ff,1,0,0,0
41,41,0,f4c3f4c3f4c3f4c3,ff,1,0,0,0,f4bff4bff4bff4bf,ff,1,0,0,1,f4bef4bef4bef4be,ff,1,0,0,1,f56ef56ef56ef56e,ff,1,0,0,0
42,42,0,f4c3f4c3f4c3f4c3,ff,1,0,0,1,f4bff4bff4bff4bf,ff,1,0,0,1,f4bef4bef4bef4be,ff,1,0,0,1,f56ef56ef56ef56e,ff,1,0,0,0
43,43,0,f4c3f4c3f4c3f4c3,ff,1,0,0,1,f4bff4bff4bff4bf,ff,1,0,0,1,f4bef4bef4bef4be,ff,1,0,0,1,f56ef56ef56ef56e,ff,1,0,0,1
44,44,0,f4c3f4c3f4c3f4c3,ff,1,0,0,1,f4bff4bff4bff4bf,ff,1,0,0,1,f4bef4bef4bef4be,ff,1,0,0,1,f56ef56ef56ef56e,ff,1,0,0,1
45,45,0,f4c3f4c3f4c3f4c3,ff,1,0,0,1,f4bff4bff4bff4bf,ff,1,0,0,1,f4bef4bef4bef4be,ff,1,0,0,1,f56ef56ef56ef56e,ff,1,0,0,1
46,46,0,f4c3f4c3f4c3f4c3,ff,1,0,0,1,f4bff4bff4bff4bf,ff,1,0,0,1,f4bef4bef4bef4be,ff,1,0,0,1,f56ef56ef56ef56e,ff,1,0,0,1
47,47,0,f4c3f4c3f4c3f4c3,ff,1,0,0,1,f4bff4bff4bff4bf,ff,1,0,0,1,f4bef4bef4bef4be,ff,1,0,0,1,f56ef56ef56ef56e,ff,1,0,0,1
48,48,0,f4c3f4c3f4c3f4c3,ff,1,0,0,1,675279bff4bff4bf,1f,1,1,1,1,ef2d72bef4bef4be,1f,1,1,1,1,f56ef56ef56ef56e,ff,1,0,0,1
49,49,0,f4c3f4c3f4c3f4c3,1f,1,1,0,1,0000000000000059,1f,0,0,0,1,0000222200000000,ff,0,0,0,1,f56ef56ef56ef56e,ff,1,0,0,1
50,50,0,0000222200000000,ff,1,0,0,1,0000000000000059,1f,0,0,0,1,0000222200000000,ff,0,0,0,1,f56ef56ef56ef56e,ff,1,0,0,1
51,51,0,f4c44f0011110000,ff,1,0,0,1,0000000000000059,1f,0,0,0,1,0000222200000000,ff,1,0,0,1,f56ef56ef56ef56e,ff,1,0,0,1
52,52,0,f4c4f4c4f4c4f4c4,ff,1,0,0,1,0000222200000000,ff,1,0,0,1,f4bf4f0011110000,ff,1,0,0,1,f56ef56ef56ef56e,1f,1,1,0,1
53,53,0,f4c4f4c4f4c4f4c4,ff,1,0,0,1,f4c04f0011110000,ff,1,0,0,1,f4bff4bff4bff4bf,ff,1,0,0,1,0000222200000000,ff,1,0,0,1
54,54,0,f4c4f4c4f4c4f4c4,ff,1,0,0,0,f4c0f4c0f4c0f4c0,ff,1,0,0,1,f4bff4bff4bff4bf,ff,1,0,0,1,f56f4f0011110000,ff,1,0,0,1
55,55,0,f4c4f4c4f4c4f4c4,ff,1,0,0,0,f4c0f4c0f4c0f4c0,ff,1,0,0,1,f4bff4bff4bff4bf,ff,1,0,0,1,f56ff56ff56ff56f,ff,1,0,0,0
56,56,0,f4c4f4c4f4c4f4c4,ff,1,0,0,0,f4c0f4c0f4c0f4c0,ff,1,0,0,1,f4bff4bff4bff4bf,ff,1,0,0,1,f56ff56ff56ff56f,ff,1,0,0,0
57,57,0,f4c4f4c4f4c4f4c4,ff,1,0,0,1,f4c0f4c0f4c0f4c0,ff,1,0,0,1,f4bff4bff4bff4bf,ff,1,0,0,1,f56ff56ff56ff56f,ff,1,0,0,0
58,58,0,f4c4f4c4f4c4f4c4,ff,1,0,0,1,f4c0f4c0f4c0f4c0,ff,1,0,0,1,f4bff4bff4bff4bf,ff,1,0,0,1,f56ff56ff56ff56f,ff,1,0,0,1
59,59,0,f4c4f4c4f4c4f4c4,ff,1,0,0,1,f4c0f4c0f4c0f4c0,ff,1,0,0,1,f4bff4bff4bff4bf,ff,1,0,0,1,f56ff56ff56ff56f,ff,1,0,0,1
60,60,0,f4c4f4c4f4c4f4c4,ff,1,0,0,1,f4c0f4c0f4c0f4c0,ff,1,0,0,1,f4bff4bff4bff4bf,ff,1,0,0,1,f56ff56ff56ff56f,ff,1,0,0,1
61,61,0,f4c4f4c4f4c4f4c4,ff,1,0,0,1,f4c0f4c0f4c0f4c0,ff,1,0,0,1,f4bff4bff4bff4bf,ff,1,0,0,1,f56ff56ff56ff56f,ff,1,0,0,1
62,62,0,f4c4f4c4f4c4f4c4,ff,1,0,0,1,f4c0f4c0f4c0f4c0,ff,1,0,0,1,675279bff4bff4bf,1f,1,1,1,1,f56ff56ff56ff56f,ff,1,0,0,1
63,63,0,f4c4f4c4f4c4f4c4,ff,1,0,0,1,d525cfc0f4c0f4c0,1f,1,1,1,1,0000222200000000,ff,0,0,0,1,f56ff56ff56ff56f,ff,1,0,0,1
64,64,0,f4c4f4c4f4c4f4c4,1f,1,1,0,1,0000000000000029,01,0,0,0,1,0000222200000000,ff,0,0,0,1,f56ff56ff56ff56f,ff,1,0,0,1
65,65,0,0000222200000000,ff,1,0,0,1,0000000000000029,01,0,0,0,1,0000222200000000,ff,0,0,0,1,f56ff56ff56ff56f,ff,1,0,0,1
66,66,0,f4c54f0011110000,ff,1,0,0,1,0000222200000000,ff,1,0,0,1,0000222200000000,ff,1,0,0,1,f56ff56ff56ff56f,ff,1,0,0,1
67,67,0,f4c5f4c5f4c5f4c5,ff,1,0,0,1,f4c14f0011110000,ff,1,0,0,1,f4c04f0011110000,ff,1,0,0,1,f56ff56ff56ff56f,1f,1,1,0,1
68,68,0,f4c5f4c5f4c5f4c5,ff,1,0,0,1,f4c1f4c1f4c1f4c1,ff,1,0,0,1,f4c0f4c0f4c0f4c0,ff,1,0,0,1,0000222200000000,ff,1,0,0,1
69,69,0,f4c5f4c5f4c5f4c5,ff,1,0,0,0,f4c1f4c1f4c1f4c1,ff,1,0,0,1,f4c0f4c0f4c0f4c0,ff,1,0,0,1,f5704f0011110000,ff,1,0,0,1
70,70,0,f4c5f4c5f4c5f4c5,ff,1,0,0,0,f4c1f4c1f4c1f4c1,ff,1,0,0,1,f4c0f4c0f4c0f4c0,ff,1,0,0,1,f570f570f570f570,ff,1,0,0,0
71,71,0,f4c5f4c5f4c5f4c5,ff,1,0,0,0,f4c1f4c1f4c1f4c1,ff,1,0,0,1,f4c0f4c0f4c0f4c0,ff,1,0,0,1,f570f570f570f570,ff,1,0,0,0
72,72,0,f4c5f4c5f4c5f4c5,ff,1,0,0,1,f4c1f4c1f4c1f4c1,ff,1,0,0,1,f4c0f4c0f4c0f4c0,ff,1,0,0,1,f570f570f570f570,ff,1,0,0,0
73,73,0,f4c5f4c5f4c5f4c5,ff,1,0,0,1,f4c1f4c1f4c1f4c1,ff,1,0,0,1,f4c0f4c0f4c0f4c0,ff,1,0,0,1,f570f570f570f570,ff,1,0,0,1
74,74,0,f4c5f4c5f4c5f4c5,ff,1,0,0,1,f4c1f4c1f4c1f4c1,ff,1,0,0,1,f4c0f4c0f4c0f4c0,ff,1,0,0,1,f570f570f570f570,ff,1,0,0,1
75,75,0,f4c5f4c5f4c5f4c5,ff,1,0,0,1,f4c1f4c1f4c1f4c1,ff,1,0,0,1,f4c0f4c0f4c0f4c0,ff,1,0,0,1,f570f570f570f570,ff,1,0,0,1
76,76,0,f4c5f4c5f4c5f4c5,ff,1,0,0,1,f4c1f4c1f4c1f4c1,ff,1,0,0,1,f4c0f4c0f4c0f4c0,ff,1,0,0,1,f570f570f570f570,ff,1,0,0,1
77,77,0,f4c5f4c5f4c5f4c5,ff,1,0,0,1,5d5ac4c1f4c1f4c1,1f,1,1,1,1,d525cfc0f4c0f4c0,1f,1,1,1,1,f570f570f570f570,ff,1,0,0,1
78,78,0,f4c5f4c5f4c5f4c5,ff,1,0,0,1,0000000000000010,1f,0,0,0,1,0000222200000000,ff,0,0,0,1,f570f570f570f570,ff,1,0,0,1
79,79,0,f4c5f4c5f4c5f4c5,1f,1,1,0,1,0000000000000010,1f,0,0,0,1,0000222200000000,ff,0,0,0,1,f570f570f570f570,ff,1,0,0,1
80,80,0,0000222200000000,ff,1,0,0,1,0000000000000010,1f,0,0,0,1,0000222200000000,ff,1,0,0,1,f570f570f570f570,ff,1,0,0,1
81,81,0,f4c64f0011110000,ff,1,0,0,1,0000222200000000,ff,1,0,0,1,f4c14f0011110000,ff,1,0,0,1,f570f570f570f570,ff,1,0,0,1
82,82,0,f4c6f4c6f4c6f4c6,ff,1,0,0,1,f4c24f0011110000,ff,1,0,0,1,f4c1f4c1f4c1f4c1,ff,1,0,0,1,f570f570f570f570,1f,1,1,0,1
83,83,0,f4c6f4c6f4c6f4c6,ff,1,0,0,1,f4c2f4c2f4c2f4c2,ff,1,0,0,1,f4c1f4c1f4c1f4c1,ff,1,0,0,1,0000222200000000,ff,1,0,0,1
84,84,0,f4c6f4c6f4c6f4c6,ff,1,0,0,0,f4c2f4c2f4c2f4c2,ff,1,0,0,1,f4c1f4c1f4c1f4c1,ff,1,0,0,1,f5714f0011110000,ff,1,0,0,1
85,85,0,f4c6f4c6f4c6f4c6,ff,1,0,0,0,f4c2f4c2f4c2f4c2,ff,1,0,0,1,f4c1f4c1f4c1f4c1,ff,1,0,0,1,f571f571f571f571,ff,1,0,0,0
86,86,0,f4c6f4c6f4c6f4c6,ff,1,0,0,0,f4c2f4c2f4c2f4c2,ff,1,0,0,1,f4c1f4c1f4c1f4c1,ff,1,0,0,1,f571f571f571f571,ff,1,0,0,0
87,87,0,f4c6f4c6f4c6f4c6,ff,1,0,0,1,f4c2f4c2f4c2f4c2,ff,1,0,0,1,f4c1f4c1f4c1f4c1,ff,1,0,0,1,f571f571f571f571,ff,1,0,0,0
88,88,0,f4c6f4c6f4c6f4c6,ff,1,0,0,1,f4c2f4c2f4c2f4c2,ff,1,0,0,1,f4c1f4c1f4c1f4c1,ff,1,0,0,1,f571f571f571f571,ff,1,0,0,1
89,89,0,f4c6f4c6f4c6f4c6,ff,1,0,0,1,f4c2f4c2f4c2f4c2,ff,1,0,0,1,f4c1f4c1f4c1f4c1,ff,1,0,0,1,f571f571f571f571,ff,1,0,0,1
90,90,0,f4c6f4c6f4c6f4c6,ff,1,0,0,1,f4c2f4c2f4c2f4c2,ff,1,0,0,1,f4c1f4c1f4c1f4c1,ff,1,0,0,1,f571f571f571f571,ff,1,0,0,1
91,91,0,f4c6f4c6f4c6f4c6,ff,1,0,0,1,f4c2f4c2f4c2f4c2,ff,1,0,0,1,5d5ac4c1f4c1f4c1,1f,1,1,1,1,f571f571f571f571,ff,1,0,0,1
92,92,0,f4c6f4c6f4c6f4c6,ff,1,0,0,1,c5dbd9c2f4c2f4c2,1f,1,1,1,1,0000222200000000,ff,0,0,0,1,f571f571f571f571,ff,1,0,0,1
93,93,0,f4c6f4c6f4c6f4c6,ff,1,0,0,1,000000000000005a,1f,0,0,0,1,0000222200000000,ff,0,0,0,1,f571f571f571f571,ff,1,0,0,1
94,94,0,f4c6f4c6f4c6f4c6,1f,1,1,0,1,000000000000005a,1f,0,0,0,1,0000222200000000,ff,0,0,0,1,f571f571f571f571,ff,1,0,0,1
95,95,0,0000222200000000,ff,1,0,0,1,000000000000005a,1f,0,0,0,1,0000222200000000,ff,1,0,0,1,f571f571f571f571,ff,1,0,0,1
96,96,0,f4c74f0011110000,ff,1,0,0,1,000000000000005a,1f,0,0,0,1,f4c24f0011110000,ff,1,0,0,1,f571f571f571f571,ff,1,0,0,1
97,97,0,f4c7f4c7f4c7f4c7,ff,1,0,0,1,0000222200000000,ff,1,0,0,1,f4c2f4c2f4c2f4c2,ff,1,0,0,1,f571f571f571f571,1f,1,1,0,1
98,98,0,f4c7f4c7f4c7f4c7,ff,1,0,0,1,f4c34f0011110000,ff,1,0,0,1,f4c2f4c2f4c2f4c2,ff,1,0,0,1,0000222200000000,ff,1,0,0,1
99,99,0,f4c7f4c7f4c7f4c7,ff,1,0,0,0,f4c3f4c3f4c3f4c3,ff,1,0,0,1,f4c2f4c2f4c2f4c2,ff,1,0,0,1,f5724f0011110000,ff,1,0,0,1
100,100,0,f4c7f4c7f4c7f4c7,ff,1,0,0,0,f4c3f4c3f4c3f4c3,ff,1,0,0,1,f4c2f4c2f4c2f4c2,ff,1,0,0,1,f572f572f572f572,ff,1,0,0,0
101,101,0,f4c7f4c7f4c7f4c7,ff,1,0,0,0,f4c3f4c3f4c3f4c3,ff,1,0,0,1,f4c2f4c2f4c2f4c2,ff,1,0,0,1,f572f572f572f572,ff,1,0,0,0
102,102,0,f4c7f4c7f4c7f4c7,ff,1,0,0,1,f4c3f4c3f4c3f4c3,ff,1,0,0,1,f4c2f4c2f4c2f4c2,ff,1,0,0,1,f572f572f572f572,ff,1,0,0,0
103,103,0,f4c7f4c7f4c7f4c7,ff,1,0,0,1,f4c3f4c3f4c3f4c3,ff,1,0,0,1,f4c2f4c2f4c2f4c2,ff,1,0,0,1,f572f572f572f572,ff,1,0,0,1
104,104,0,f4c7f4c7f4c7f4c7,ff,1,0,0,1,f4c3f4c3f4c3f4c3,ff,1,0,0,1,f4c2f4c2f4c2f4c2,ff,1,0,0,1,f572f572f572f572,ff,1,0,0,1
105,105,0,f4c7f4c7f4c7f4c7,ff,1,0,0,1,f4c3f4c3f4c3f4c3,ff,1,0,0,1,f4c2f4c2f4c2f4c2,ff,1,0,0,1,f572f572f572f572,ff,1,0,0,1
106,106,0,f4c7f4c7f4c7f4c7,ff,1,0,0,1,f4c3f4c3f4c3f4c3,ff,1,0,0,1,c5dbd9c2f4c2f4c2,1f,1,1,1,1,f572f572f572f572,ff,1,0,0,1
107,107,0,f4c7f4c7f4c7f4c7,ff,1,0,0,1,f4c3f4c3f4c3f4c3,ff,1,0,0,1,0000222200000000,ff,0,0,0,1,f572f572f572f572,ff,1,0,0,1
108,108,0,f4c7f4c7f4c7f4c7,ff,1,0,0,1,4da4d2c3f4c3f4c3,1f,1,1,1,1,0000222200000000,ff,0,0,0,1,f572f572f572f572,ff,1,0,0,1
109,109,0,f4c7f4c7f4c7f4c7,1f,1,1,0,1,0000000000000063,1f,0,0,0,1,0000222200000000,ff,0,0,0,1,f572f572f572f572,ff,1,0,0,1
110,110,0,0000222200000000,ff,1,0,0,1,0000000000000063,1f,0,0,0,1,0000222200000000,ff,0,0,0,1,f572f572f572f572,ff,1,0,0,1
111,111,0,f4c84f0011110000,ff,1,0,0,1,0000000000000063,1f,0,0,0,1,0000222200000000,ff,1,0,0,1,f572f572f572f572,ff,1,0,0,1
112,112,0,f4c8f4c8f4c8f4c8,ff,1,0,0,1,0000222200000000,ff,1,0,0,1,f4c34f0011110000,ff,1,0,0,1,f572f572f572f572,1f,1,1,0,1
113,113,0,f4c8f4c8f4c8f4c8,ff,1,0,0,1,f4c44f0011110000,ff,1,0,0,1,f4c3f4c3f4c3f4c3,ff,1,0,0,1,0000222200000000,ff,1,0,0,1
114,114,0,f4c8f4c8f4c8f4c8,ff,1,0,0,0,f4c4f4c4f4c4f4c4,ff,1,0,0,1,f4c3f4c3f4c3f4c3,ff,1,0,0,1,f5734f0011110000,ff,1,0,0,1
115,115,0,f4c8f4c8f4c8f4c8,ff,1,0,0,0,f4c4f4c4f4c4f4c4,ff,1,0,0,1,f4c3f4c3f4c3f4c3,ff,1,0,0,1,f573f573f573f573,ff,1,0,0,0
116,116,0,f4c8f4c8f4c8f4c8,ff,1,0,0,0,f4c4f4c4f4c4f4c4,ff,1,0,0,1,f4c3f4c3f4c3f4c3,ff,1,0,0,1,f573f573f573f573,ff,1,0,0,0
117,117,0,f4c8f4c8f4c8f4c8,ff,1,0,0,1,f4c4f4c4f4c4f4c4,ff,1,0,0,1,f4c3f4c3f4c3f4c3,ff,1,0,0,1,f573f573f573f573,ff,1,0,0,0
118,118,0,f4c8f4c8f4c8f4c8,ff,1,0,0,1,f4c4f4c4f4c4f4c4,ff,1,0,0,1,f4c3f4c3f4c3f4c3,ff,1,0,0,1,f573f573f573f573,ff,1,0,0,1
119,119,0,f4c8f4c8f4c8f4c8,ff,1,0,0,1,f4c4f4c4f4c4f4c4,ff,1,0,0,1,f4c3f4c3f4c3f4c3,ff,1,0,0,1,f573f573f573f573,ff,1,0,0,1
120,120,0,f4c8f4c8f4c8f4c8,ff,1,0,0,1,f4c4f4c4f4c4f4c4,ff,1,0,0,1,f4c3f4c3f4c3f4c3,ff,1,0,0,1,f573f573f573f573,ff,1,0,0,1
121,121,0,f4c8f4c8f4c8f4c8,ff,1,0,0,1,f4c4f4c4f4c4f4c4,ff,1,0,0,1,f4c3f4c3f4c3f4c3,ff,1,0,0,1,f573f573f573f573,ff,1,0,0,1
122,122,0,f4c8f4c8f4c8f4c8,ff,1,0,0,1,f4c4f4c4f4c4f4c4,ff,1,0,0,1,4da4d2c3f4c3f4c3,1f,1,1,1,1,f573f573f573f573,ff,1,0,0,1
123,123,0,f4c8f4c8f4c8f4c8,ff,1,0,0,1,f4d9e3c4f4c4f4c4,1f,1,1,1,1,0000222200000000,ff,0,0,0,1,f573f573f573f573,ff,1,0,0,1
124,124,0,f4c8f4c8f4c8f4c8,1f,1,1,0,1,00000000000000cf,1f,0,0,0,1,0000222200000000,ff,0,0,0,1,f573f573f573f573,ff,1,0,0,1
125,125,0,0000222200000000,ff,1,0,0,1,00000000000000cf,1f,0,0,0,1,0000222200000000,ff,0,0,0,1,f573f573f573f573,ff,1,0,0,1
126,126,0,f4c94f0011110000,ff,1,0,0,1,00000000000000cf,1f,0,0,0,1,0000222200000000,ff,1,0,0,1,f573f573f573f573,ff,1,0,0,1
127,127,0,f4c9f4c9f4c9f4c9,ff,1,0,0,1,0000222200000000,ff,1,0,0,1,f4c44f0011110000,ff,1,0,0,1,f573f573f573f573,1f,1,1,0,1
128,128,0,f4c9f4c9f4c9f4c9,ff,1,0,0,1,f4c54f0011110000,ff,1,0,0,1,f4c4f4c4f4c4f4c4,ff,1,0,0,1,0000222200000000,ff,1,0,0,1
129,129,0,f4c9f4c9f4c9f4c9,ff,1,0,0,0,f4c5f4c5f4c5f4c5,ff,1,0,0,1,f4c4f4c4f4c4f4c4,ff,1,0,0,1,f5744f0011110000,ff,1,0,0,1
130,130,0,f4c9f4c9f4c9f4c9,ff,1,0,0,0,f4c5f4c5f4c5f4c5,ff,1,0,0,1,f4c4f4c4f4c4f4c4,ff,1,0,0,1,f574f574f574f574,ff,1,0,0,0
131,131,0,f4c9f4c9f4c9f4c9,ff,1,0,0,0,f4c5f4c5f4c5f4c5,ff,1,0,0,1,f4c4f4c4f4c4f4c4,ff,1,0,0,1,f574f574f574f574,ff,1,0,0,0
132,132,0,f4c9f4c9f4c9f4c9,ff,1,0,0,1,f4c5f4c5f4c5f4c5,ff,1,0,0,1,f4c4f4c4f4c4f4c4,ff,1,0,0,1,f574f574f574f574,ff,1,0,0,0
133,133,0,f4c9f4c9f4c9f4c9,ff,1,0,0,1,f4c5f4c5f4c5f4c5,ff,1,0,0,1,f4c4f4c4f4c4f4c4,ff,1,0,0,1,f574f574f574f574,ff,1,0,0,1
134,134,0,f4c9f4c9f4c9f4c9,ff,1,0,0,1,f4c5f4c5f4c5f4c5,ff,1,0,0,1,f4c4f4c4f4c4f4c4,ff,1,0,0,1,f574f574f574f574,ff,1,0,0,1
135,135,0,f4c9f4c9f4c9f4c9,ff,1,0,0,1,f4c5f4c5f4c5f4c5,ff,1,0,0,1,f4c4f4c4f4c4f4c4,ff,1,0,0,1,f574f574f574f574,ff,1,0,0,1
136,136,0,f4c9f4c9f4c9f4c9,ff,1,0,0,1,f4c5f4c5f4c5f4c5,ff,1,0,0,1,f4c4f4c4f4c4f4c4,ff,1,0,0,1,f574f574f574f574,ff,1,0,0,1
137,137,0,f4c9f4c9f4c9f4c9,ff,1,0,0,1,f4c5f4c5f4c5f4c5,ff,1,0,0,1,f4d9e3c4f4c4f4c4,1f,1,1,1,1,f574f574f574f574,ff,1,0,0,1
138,138,0,f4c9f4c9f4c9f4c9,ff,1,0,0,1,7ca6e8c5f4c5f4c5,1f,1,1,1,1,0000222200000000,ff,0,0,0,1,f574f574f574f574,ff,1,0,0,1
139,139,0,f4c9f4c9f4c9f4c9,1f,1,1,0,1,00000000000000f6,1f,0,0,0,1,0000222200000000,ff,0,0,0,1,f574f574f574f574,ff,1,0,0,1
140,140,0,0000222200000000,ff,1,0,0,1,00000000000000f6,1f,0,0,0,1,0000222200000000,ff,0,0,0,1,f574f574f574f574,ff,1,0,0,1
141,141,0,f4ca4f0011110000,ff,1,0,0,1,00000000000000f6,1f,0,0,0,1,0000222200000000,ff,1,0,0,1,f574f574f574f574,ff,1,0,0,1
142,142,0,f4caf4caf4caf4ca,ff,1,0,0,1,0000222200000000,ff,1,0,0,1,f4c54f0011110000,ff,1,0,0,1,f574f574f574f574,1f,1,1,0,1
143,143,0,f4caf4caf4caf4ca,ff,1,0,0,1,f4c64f0011110000,ff,1,0,0,1,f4c5f4c5f4c5f4c5,ff,1,0,0,1,0000222200000000,ff,1,0,0,1
144,144,0,f4caf4caf4caf4ca,ff,1,0,0,0,f4c6f4c6f4c6f4c6,ff,1,0,0,1,f4c5f4c5f4c5f4c5,ff,1,0,0,1,f5754f0011110000,ff,1,0,0,1
145,145,0,f4caf4caf4caf4ca,ff,1,0,0,0,f4c6f4c6f4c6f4c6,ff,1,0,0,1,f4c5f4c5f4c5f4c5,ff,1,0,0,1,f575f575f575f575,ff,1,0,0,0
146,146,0,f4caf4caf4caf4ca,ff,1,0,0,0,f4c6f4c6f4c6f4c6,ff,1,0,0,1,f4c5f4c5f4c5f4c5,ff,1,0,0,1,f575f575f575f575,ff,1,0,0,0
147,147,0,f4caf4caf4caf4ca,ff,1,0,0,1,f4c6f4c6f4c6f4c6,ff,1,0,0,1,f4c5f4c5f4c5f4c5,ff,1,0,0,1,f575f575f575f575,ff,1,0,0,0
148,148,0,f4caf4caf4caf4ca,ff,1,0,0,1,f4c6f4c6f4c6f4c6,ff,1,0,0,1,f4c5f4c5f4c5f4c5,ff,1,0,0,1,f575f575f575f575,ff,1,0,0,1
149,149,0,f4caf4caf4caf4ca,ff,1,0,0,1,f4c6f4c6f4c6f4c6,ff,1,0,0,1,f4c5f4c5f4c5f4c5,ff,1,0,0,1,f575f575f575f575,ff,1,0,0,1
150,150,0,f4caf4caf4caf4ca,ff,1,0,0,1,f4c6f4c6f4c6f4c6,ff,1,0,0,1,f4c5f4c5f4c5f4c5,ff,1,0,0,1,f575f575f575f575,ff,1,0,0,1
