Sample in Buffer,Sample in Window,TRIGGER,tb_tg_config_ch0[31:0],tb_tg_config_ch1[31:0],xphy_status_ch0[7:0],xphy_status_ch1[7:0],s_axis_tx_0_tdata[63:0],m_axis_rx_0_tdata[63:0],reset_sys,rx_statistics_valid_ch0,rx_statistics_vector_ch0[29:0],tx_statistics_valid_ch0,tx_statistics_vector_ch0[25:0],rx_statistics_valid_ch1,rx_statistics_vector_ch1[29:0],tx_statistics_valid_ch1,tx_statistics_vector_ch1[25:0],s_axis_tx_1_tdata[63:0],m_axis_rx_1_tdata[63:0]
0,0,0,04000001,007d0002,01,01,55d255d255d255d2,55d355d355d355d3,0,0,04000ce2,0,1000801,0,040009e2,0,1000801,55d655d655d655d6,55cf55cf55cf55cf
1,1,0,04000001,007d0002,01,01,55d255d255d255d2,55d355d355d355d3,0,0,04000de2,0,1000801,0,04000ae2,0,1000801,55d655d655d655d6,55cf55cf55cf55cf
2,2,0,04000001,007d0002,01,01,55d255d255d255d2,55d355d355d355d3,0,0,04000ee2,0,1000801,0,04000be2,0,1000801,55d655d655d655d6,55cf55cf55cf55cf
3,3,0,04000001,007d0002,01,01,55d255d255d255d2,55d355d355d355d3,0,0,04000fe2,0,1000801,0,04000ce2,0,1000801,55d655d655d655d6,55cf55cf55cf55cf
4,4,0,04000001,007d0002,01,01,55d255d255d255d2,55d355d355d355d3,0,0,040010e2,0,1000901,0,04000de2,0,1000801,55d655d655d655d6,55cf55cf55cf55cf
5,5,0,04000001,007d0002,01,01,55d255d255d255d2,55d355d355d355d3,0,0,040011e1,0,1000a01,0,04000ee2,0,1000901,55d655d655d655d6,55cf55cf55cf55cf
6,6,0,04000001,007d0002,01,01,55d255d255d255d2,00a8714e8ed355d3,0,0,038011e1,0,1000b01,0,04000fe2,0,1000a01,55d655d655d655d6,55cf55cf55cf55cf
7,7,0,04000001,007d0002,01,01,55d255d255d255d2,0000000000000000,0,1,000011e1,0,1000c01,0,040010e2,0,1000b01,55d655d655d655d6,55cf55cf55cf55cf
8,8,0,04000001,007d0002,01,01,55d255d255d255d2,0000000000000000,0,0,000000e1,0,1000d01,0,040011e1,0,1000c01,55d655d655d655d6,55cf55cf55cf55cf
9,9,0,04000001,007d0002,01,01,55d255d255d255d2,0000000000000000,0,0,000000e1,0,1000e01,0,038011e1,0,1000d01,55d655d655d655d6,002345f3dacf55cf
10,10,0,04000001,007d0002,01,01,00e8875cc6d255d2,0000222200000000,0,0,040001e2,0,1000f01,1,000011e1,0,1000e01,0000222200000000,5555550000000000
11,11,0,04000001,007d0002,01,01,0000333300000000,55d47d0011110000,0,0,040002e2,0,1001001,0,000000e1,0,1000f01,55d77d0011110000,5555550000000000
12,12,0,04000001,007d0002,01,01,55d37d0011110000,55d455d455d455d4,0,0,040003e2,0,1001101,0,040001e2,0,1001001,55d755d755d755d7,0000333300000000
13,13,0,04000001,007d0002,01,01,55d355d355d355d3,55d455d455d455d4,0,0,040004e2,1,0e011e1,0,040002e2,0,1001101,55d755d755d755d7,55d07d0011110000
14,14,0,04000001,007d0002,01,01,55d355d355d355d3,55d455d455d455d4,0,0,040005e2,0,00011e1,0,040003e2,1,0e011e1,55d755d755d755d7,55d055d055d055d0
15,15,0,04000001,007d0002,01,01,55d355d355d355d3,55d455d455d455d4,0,0,040006e2,0,0000001,0,040004e2,0,00011e1,55d755d755d755d7,55d055d055d055d0
16,16,0,04000001,007d0002,01,01,55d355d355d355d3,55d455d455d455d4,0,0,040007e2,0,1000801,0,040005e2,0,00011e1,55d755d755d755d7,55d055d055d055d0
17,17,0,04000001,007d0002,01,01,55d355d355d355d3,55d455d455d455d4,0,0,040008e2,0,1000801,0,040006e2,0,0000001,55d755d755d755d7,55d055d055d055d0
18,18,0,04000001,007d0002,01,01,55d355d355d355d3,55d455d455d455d4,0,0,040009e2,0,1000801,0,040007e2,0,1000801,55d755d755d755d7,55d055d055d055d0
19,19,0,04000001,007d0002,01,01,55d355d355d355d3,55d455d455d455d4,0,0,04000ae2,0,1000801,0,040008e2,0,1000801,55d755d755d755d7,55d055d055d055d0
20,20,0,04000001,007d0002,01,01,55d355d355d355d3,55d455d455d455d4,0,0,04000be2,0,1000801,0,040009e2,0,1000801,55d755d755d755d7,55d055d055d055d0
21,21,0,04000001,007d0002,01,01,55d355d355d355d3,55d455d455d455d4,0,0,04000ce2,0,1000801,0,04000ae2,0,1000801,55d755d755d755d7,55d055d055d055d0
22,22,0,04000001,007d0002,01,01,55d355d355d355d3,55d455d455d455d4,0,0,04000de2,0,1000801,0,04000be2,0,1000801,55d755d755d755d7,55d055d055d055d0
23,23,0,04000001,007d0002,01,01,55d355d355d355d3,55d455d455d455d4,0,0,04000ee2,0,1000801,0,04000ce2,0,1000801,55d755d755d755d7,55d055d055d055d0
24,24,0,04000001,007d0002,01,01,55d355d355d355d3,55d455d455d455d4,0,0,04000fe2,0,1000901,0,04000de2,0,1000801,55d755d755d755d7,55d055d055d055d0
25,25,0,04000001,007d0002,01,01,55d355d355d355d3,55d455d455d455d4,0,0,040010e2,0,1000a01,0,04000ee2,0,1000801,55d755d755d755d7,55d055d055d055d0
26,26,0,04000001,007d0002,01,01,55d355d355d355d3,55d455d455d455d4,0,0,040011e1,0,1000b01,0,04000fe2,0,1000901,55d755d755d755d7,55d055d055d055d0
27,27,0,04000001,007d0002,01,01,55d355d355d355d3,00b1c23737d455d4,0,0,038011e1,0,1000c01,0,040010e2,0,1000a01,55d755d755d755d7,55d055d055d055d0
28,28,0,04000001,007d0002,01,01,55d355d355d355d3,0000000000000000,0,1,000011e1,0,1000d01,0,040011e1,0,1000b01,55d755d755d755d7,55d055d055d055d0
29,29,0,04000001,007d0002,01,01,55d355d355d355d3,0000000000000000,0,0,000000e1,0,1000e01,0,038011e1,0,1000c01,55d755d755d755d7,00849223e6d055d0
30,30,0,04000001,007d0002,01,01,55d355d355d355d3,0000000000000000,0,0,000000e1,0,1000f01,1,000011e1,0,1000d01,0000222200000000,0000000000000000
31,31,0,04000001,007d0002,01,01,00a8714e8ed355d3,0000222200000000,0,0,040001e2,0,1001001,0,000000e1,0,1000e01,55d87d0011110000,0000000000000000
32,32,0,04000001,007d0002,01,01,0000333300000000,55d57d0011110000,0,0,040002e2,0,1001101,0,000000e1,0,1000f01,55d855d855d855d8,0000000000000000
33,33,0,04000001,007d0002,01,01,55d47d0011110000,55d555d555d555d5,0,0,040003e2,1,0e011e1,0,040001e2,0,1001001,55d855d855d855d8,0000333300000000
34,34,0,04000001,007d0002,01,01,55d455d455d455d4,55d555d555d555d5,0,0,040004e2,0,00011e1,0,040002e2,0,1001101,55d855d855d855d8,55d17d0011110000
35,35,0,04000001,007d0002,01,01,55d455d455d455d4,55d555d555d555d5,0,0,040005e2,0,00011e1,0,040003e2,1,0e011e1,55d855d855d855d8,55d155d155d155d1
36,36,0,04000001,007d0002,01,01,55d455d455d455d4,55d555d555d555d5,0,0,040006e2,0,0000001,0,040004e2,0,00011e1,55d855d855d855d8,55d155d155d155d1
37,37,0,04000001,007d0002,01,01,55d455d455d455d4,55d555d555d555d5,0,0,040007e2,0,1000801,0,040005e2,0,0000001,55d855d855d855d8,55d155d155d155d1
38,38,0,04000001,007d0002,01,01,55d455d455d455d4,55d555d555d555d5,0,0,040008e2,0,1000801,0,040006e2,0,1000801,55d855d855d855d8,55d155d155d155d1
39,39,0,04000001,007d0002,01,01,55d455d455d455d4,55d555d555d555d5,0,0,040009e2,0,1000801,0,040007e2,0,1000801,55d855d855d855d8,55d155d155d155d1
40,40,0,04000001,007d0002,01,01,55d455d455d455d4,55d555d555d555d5,0,0,04000ae2,0,1000801,0,040008e2,0,1000801,55d855d855d855d8,55d155d155d155d1
41,41,0,04000001,007d0002,01,01,55d455d455d455d4,55d555d555d555d5,0,0,04000be2,0,1000801,0,040009e2,0,1000801,55d855d855d855d8,55d155d155d155d1
42,42,0,04000001,007d0002,01,01,55d455d455d455d4,55d555d555d555d5,0,0,04000ce2,0,1000801,0,04000ae2,0,1000801,55d855d855d855d8,55d155d155d155d1
43,43,0,04000001,007d0002,01,01,55d455d455d455d4,55d555d555d555d5,0,0,04000de2,0,1000801,0,04000be2,0,1000801,55d855d855d855d8,55d155d155d155d1
44,44,0,04000001,007d0002,01,01,55d455d455d455d4,55d555d555d555d5,0,0,04000ee2,0,1000801,0,04000ce2,0,1000801,55d855d855d855d8,55d155d155d155d1
45,45,0,04000001,007d0002,01,01,55d455d455d455d4,55d555d555d555d5,0,0,04000fe2,0,1000901,0,04000de2,0,1000801,55d855d855d855d8,55d155d155d155d1
46,46,0,04000001,007d0002,01,01,55d455d455d455d4,55d555d555d555d5,0,0,040010e2,0,1000a01,0,04000ee2,0,1000901,55d855d855d855d8,55d155d155d155d1
47,47,0,04000001,007d0002,01,01,55d455d455d455d4,55d555d555d555d5,0,0,040011e1,0,1000b01,0,04000fe2,0,1000a01,55d855d855d855d8,55d155d155d155d1
48,48,0,04000001,007d0002,01,01,55d455d455d455d4,00f134257fd555d5,0,0,038011e1,0,1000c01,0,040010e2,0,1000b01,55d855d855d855d8,55d155d155d155d1
49,49,0,04000001,007d0002,01,01,55d455d455d455d4,5555550000000000,0,1,000011e1,0,1000d01,0,040011e1,0,1000c01,55d855d855d855d8,55d155d155d155d1
50,50,0,04000001,007d0002,01,01,55d455d455d455d4,5555550000000000,0,0,000000e1,0,1000e01,0,038011e1,0,1000d01,55d855d855d855d8,00c46431aed155d1
51,51,0,04000001,007d0002,01,01,00b1c23737d455d4,0000222200000000,0,0,040001e2,0,1000f01,1,000011e1,0,1000e01,0000222200000000,0000000000000000
52,52,0,04000001,007d0002,01,01,0000333300000000,55d67d0011110000,0,0,040002e2,0,1001001,0,000000e1,0,1000f01,55d97d0011110000,0000000000000000
53,53,0,04000001,007d0002,01,01,55d57d0011110000,55d655d655d655d6,0,0,040003e2,0,1001101,0,000000e1,0,1001001,55d955d955d955d9,0000000000000000
54,54,0,04000001,007d0002,01,01,55d555d555d555d5,55d655d655d655d6,0,0,040004e2,1,0e011e1,0,040001e2,0,1001101,55d955d955d955d9,0000333300000000
55,55,0,04000001,007d0002,01,01,55d555d555d555d5,55d655d655d655d6,0,0,040005e2,0,00011e1,0,040002e2,1,0e011e1,55d955d955d955d9,55d27d0011110000
56,56,0,04000001,007d0002,01,01,55d555d555d555d5,55d655d655d655d6,0,0,040006e2,0,0000001,0,040003e2,0,00011e1,55d955d955d955d9,55d255d255d255d2
57,57,0,04000001,007d0002,01,01,55d555d555d555d5,55d655d655d655d6,0,0,040007e2,0,1000801,0,040004e2,0,00011e1,55d955d955d955d9,55d255d255d255d2
58,58,0,04000001,007d0002,01,01,55d555d555d555d5,55d655d655d655d6,0,0,040008e2,0,1000801,0,040005e2,0,0000001,55d955d955d955d9,55d255d255d255d2
59,59,0,04000001,007d0002,01,01,55d555d555d555d5,55d655d655d655d6,0,0,040009e2,0,1000801,0,040006e2,0,1000801,55d955d955d955d9,55d255d255d255d2
60,60,0,04000001,007d0002,01,01,55d555d555d555d5,55d655d655d655d6,0,0,04000ae2,0,1000801,0,040007e2,0,1000801,55d955d955d955d9,55d255d255d255d2
61,61,0,04000001,007d0002,01,01,55d555d555d555d5,55d655d655d655d6,0,0,04000be2,0,1000801,0,040008e2,0,1000801,55d955d955d955d9,55d255d255d255d2
62,62,0,04000001,007d0002,01,01,55d555d555d555d5,55d655d655d655d6,0,0,04000ce2,0,1000801,0,040009e2,0,1000801,55d955d955d955d9,55d255d255d255d2
63,63,0,04000001,007d0002,01,01,55d555d555d555d5,55d655d655d655d6,0,0,04000de2,0,1000801,0,04000ae2,0,1000801,55d955d955d955d9,55d255d255d255d2
64,64,0,04000001,007d0002,01,01,55d555d555d555d5,55d655d655d655d6,0,0,04000ee2,0,1000801,0,04000be2,0,1000801,55d955d955d955d9,55d255d255d255d2
65,65,0,04000001,007d0002,01,01,55d555d555d555d5,55d655d655d655d6,0,0,04000fe2,0,1000901,0,04000ce2,0,1000801,55d955d955d955d9,55d255d255d255d2
66,66,0,04000001,007d0002,01,01,55d555d555d555d5,55d655d655d655d6,0,0,040010e2,0,1000a01,0,04000de2,0,1000801,55d955d955d955d9,55d255d255d255d2
67,67,0,04000001,007d0002,01,01,55d555d555d555d5,55d655d655d655d6,0,0,040011e1,0,1000b01,0,04000ee2,0,1000901,55d955d955d955d9,55d255d255d255d2
68,68,0,04000001,007d0002,01,01,55d555d555d555d5,00302e13a7d655d6,0,0,038011e1,0,1000c01,0,04000fe2,0,1000a01,55d955d955d955d9,55d255d255d255d2
69,69,0,04000001,007d0002,01,01,55d555d555d555d5,0000000000000000,0,1,000011e1,0,1000d01,0,040010e2,0,1000b01,55d955d955d955d9,55d255d255d255d2
70,70,0,04000001,007d0002,01,01,55d555d555d555d5,0000000000000000,0,0,000000e1,0,1000e01,0,040011e1,0,1000c01,55d955d955d955d9,55d255d255d255d2
71,71,0,04000001,007d0002,01,01,55d555d555d555d5,0000222200000000,0,0,040001e2,0,1000f01,0,038011e1,0,1000d01,0000222200000000,00057e0776d255d2
72,72,0,04000001,007d0002,01,01,00f134257fd555d5,55d77d0011110000,0,0,040002e2,0,1001001,1,000011e1,0,1000e01,55da7d0011110000,5555550000000000
73,73,0,04000001,007d0002,01,01,0000333300000000,55d755d755d755d7,0,0,040003e2,0,1001101,0,000000e1,0,1000f01,55da55da55da55da,5555550000000000
74,74,0,04000001,007d0002,01,01,55d67d0011110000,55d755d755d755d7,0,0,040004e2,1,0e011e1,0,040001e2,0,1001001,55da55da55da55da,0000333300000000
75,75,0,04000001,007d0002,01,01,55d655d655d655d6,55d755d755d755d7,0,0,040005e2,0,00011e1,0,040002e2,0,1001101,55da55da55da55da,55d37d0011110000
76,76,0,04000001,007d0002,01,01,55d655d655d655d6,55d755d755d755d7,0,0,040006e2,0,00011e1,0,040003e2,1,0e011e1,55da55da55da55da,55d355d355d355d3
77,77,0,04000001,007d0002,01,01,55d655d655d655d6,55d755d755d755d7,0,0,040007e2,0,0000001,0,040004e2,0,00011e1,55da55da55da55da,55d355d355d355d3
78,78,0,04000001,007d0002,01,01,55d655d655d655d6,55d755d755d755d7,0,0,040008e2,0,1000801,0,040005e2,0,0000001,55da55da55da55da,55d355d355d355d3
79,79,0,04000001,007d0002,01,01,55d655d655d655d6,55d755d755d755d7,0,0,040009e2,0,1000801,0,040006e2,0,1000801,55da55da55da55da,55d355d355d355d3
80,80,0,04000001,007d0002,01,01,55d655d655d655d6,55d755d755d755d7,0,0,04000ae2,0,1000801,0,040007e2,0,1000801,55da55da55da55da,55d355d355d355d3
81,81,0,04000001,007d0002,01,01,55d655d655d655d6,55d755d755d755d7,0,0,04000be2,0,1000801,0,040008e2,0,1000801,55da55da55da55da,55d355d355d355d3
82,82,0,04000001,007d0002,01,01,55d655d655d655d6,55d755d755d755d7,0,0,04000ce2,0,1000801,0,040009e2,0,1000801,55da55da55da55da,55d355d355d355d3
83,83,0,04000001,007d0002,01,01,55d655d655d655d6,55d755d755d755d7,0,0,04000de2,0,1000801,0,04000ae2,0,1000801,55da55da55da55da,55d355d355d355d3
84,84,0,04000001,007d0002,01,01,55d655d655d655d6,55d755d755d755d7,0,0,04000ee2,0,1000801,0,04000be2,0,1000801,55da55da55da55da,55d355d355d355d3
85,85,0,04000001,007d0002,01,01,55d655d655d655d6,55d755d755d755d7,0,0,04000fe2,0,1000801,0,04000ce2,0,1000801,55da55da55da55da,55d355d355d355d3
86,86,0,04000001,007d0002,01,01,55d655d655d655d6,55d755d755d755d7,0,0,040010e2,0,1000901,0,04000de2,0,1000801,55da55da55da55da,55d355d355d355d3
87,87,0,04000001,007d0002,01,01,55d655d655d655d6,55d755d755d755d7,0,0,040011e1,0,1000a01,0,04000ee2,0,1000901,55da55da55da55da,55d355d355d355d3
88,88,0,04000001,007d0002,01,01,55d655d655d655d6,0070d801efd755d7,0,0,038011e1,0,1000b01,0,04000fe2,0,1000a01,55da55da55da55da,55d355d355d355d3
89,89,0,04000001,007d0002,01,01,55d655d655d655d6,0000000000000000,0,1,000011e1,0,1000c01,0,040010e2,0,1000b01,55da55da55da55da,55d355d355d355d3
90,90,0,04000001,007d0002,01,01,55d655d655d655d6,0000000000000000,0,0,000000e1,0,1000d01,0,040011e1,0,1000c01,55da55da55da55da,55d355d355d355d3
91,91,0,04000001,007d0002,01,01,55d655d655d655d6,0000000000000000,0,0,000000e1,0,1000e01,0,038011e1,0,1000d01,55da55da55da55da,004588153ed355d3
92,92,0,04000001,007d0002,01,01,00302e13a7d655d6,0000222200000000,0,0,040001e2,0,1000f01,1,000011e1,0,1000e01,0000222200000000,0000000000000000
93,93,0,04000001,007d0002,01,01,0000333300000000,55d87d0011110000,0,0,040002e2,0,1001001,0,000000e1,0,1000f01,55db7d0011110000,0000000000000000
94,94,0,04000001,007d0002,01,01,55d77d0011110000,55d855d855d855d8,0,0,040003e2,0,1001101,0,040001e2,0,1001001,55db55db55db55db,0000333300000000
95,95,0,04000001,007d0002,01,01,55d755d755d755d7,55d855d855d855d8,0,0,040004e2,1,0e011e1,0,040002e2,0,1001101,55db55db55db55db,55d47d0011110000
96,96,0,04000001,007d0002,01,01,55d755d755d755d7,55d855d855d855d8,0,0,040005e2,0,00011e1,0,040003e2,1,0e011e1,55db55db55db55db,55d455d455d455d4
97,97,0,04000001,007d0002,01,01,55d755d755d755d7,55d855d855d855d8,0,0,040006e2,0,0000001,0,040004e2,0,00011e1,55db55db55db55db,55d455d455d455d4
98,98,0,04000001,007d0002,01,01,55d755d755d755d7,55d855d855d855d8,0,0,040007e2,0,1000801,0,040005e2,0,00011e1,55db55db55db55db,55d455d455d455d4
99,99,0,04000001,007d0002,01,01,55d755d755d755d7,55d855d855d855d8,0,0,040008e2,0,1000801,0,040006e2,0,0000001,55db55db55db55db,55d455d455d455d4
100,100,0,04000001,007d0002,01,01,55d755d755d755d7,55d855d855d855d8,0,0,040009e2,0,1000801,0,040007e2,0,1000801,55db55db55db55db,55d455d455d455d4
101,101,0,04000001,007d0002,01,01,55d755d755d755d7,55d855d855d855d8,0,0,04000ae2,0,1000801,0,040008e2,0,1000801,55db55db55db55db,55d455d455d455d4
102,102,0,04000001,007d0002,01,01,55d755d755d755d7,55d855d855d855d8,0,0,04000be2,0,1000801,0,040009e2,0,1000801,55db55db55db55db,55d455d455d455d4
103,103,0,04000001,007d0002,01,01,55d755d755d755d7,55d855d855d855d8,0,0,04000ce2,0,1000801,0,04000ae2,0,1000801,55db55db55db55db,55d455d455d455d4
104,104,0,04000001,007d0002,01,01,55d755d755d755d7,55d855d855d855d8,0,0,04000de2,0,1000801,0,04000be2,0,1000801,55db55db55db55db,55d455d455d455d4
105,105,0,04000001,007d0002,01,01,55d755d755d755d7,55d855d855d855d8,0,0,04000ee2,0,1000801,0,04000ce2,0,1000801,55db55db55db55db,55d455d455d455d4
106,106,0,04000001,007d0002,01,01,55d755d755d755d7,55d855d855d855d8,0,0,04000fe2,0,1000901,0,04000de2,0,1000801,55db55db55db55db,55d455d455d455d4
107,107,0,04000001,007d0002,01,01,55d755d755d755d7,55d855d855d855d8,0,0,040010e2,0,1000a01,0,04000ee2,0,1000801,55db55db55db55db,55d455d455d455d4
108,108,0,04000001,007d0002,01,01,55d755d755d755d7,55d855d855d855d8,0,0,040011e1,0,1000b01,0,04000fe2,0,1000901,55db55db55db55db,55d455d455d455d4
109,109,0,04000001,007d0002,01,01,55d755d755d755d7,000348e0d5d855d8,0,0,038011e1,0,1000c01,0,040010e2,0,1000a01,55db55db55db55db,55d455d455d455d4
110,110,0,04000001,007d0002,01,01,55d755d755d755d7,5555550000000000,0,1,000011e1,0,1000d01,0,040011e1,0,1000b01,55db55db55db55db,55d455d455d455d4
111,111,0,04000001,007d0002,01,01,55d755d755d755d7,5555550000000000,0,0,000000e1,0,1000e01,0,038011e1,0,1000c01,55db55db55db55db,005c3b6c87d455d4
112,112,0,04000001,007d0002,01,01,55d755d755d755d7,0000222200000000,0,0,040001e2,0,1000f01,1,000011e1,0,1000d01,0000222200000000,0000000000000000
113,113,0,04000001,007d0002,01,01,0070d801efd755d7,55d97d0011110000,0,0,040002e2,0,1001001,0,000000e1,0,1000e01,55dc7d0011110000,0000000000000000
114,114,0,04000001,007d0002,01,01,0000333300000000,55d955d955d955d9,0,0,040003e2,0,1001101,0,000000e1,0,1000f01,55dc55dc55dc55dc,0000000000000000
115,115,0,04000001,007d0002,01,01,55d87d0011110000,55d955d955d955d9,0,0,040004e2,1,0e011e1,0,040001e2,0,1001001,55dc55dc55dc55dc,0000333300000000
116,116,0,04000001,007d0002,01,01,55d855d855d855d8,55d955d955d955d9,0,0,040005e2,0,00011e1,0,040002e2,0,1001101,55dc55dc55dc55dc,55d57d0011110000
117,117,0,04000001,007d0002,01,01,55d855d855d855d8,55d955d955d955d9,0,0,040006e2,0,00011e1,0,040003e2,1,0e011e1,55dc55dc55dc55dc,55d555d555d555d5
118,118,0,04000001,007d0002,01,01,55d855d855d855d8,55d955d955d955d9,0,0,040007e2,0,0000001,0,040004e2,0,00011e1,55dc55dc55dc55dc,55d555d555d555d5
119,119,0,04000001,007d0002,01,01,55d855d855d855d8,55d955d955d955d9,0,0,040008e2,0,1000801,0,040005e2,0,0000001,55dc55dc55dc55dc,55d555d555d555d5
120,120,0,04000001,007d0002,01,01,55d855d855d855d8,55d955d955d955d9,0,0,040009e2,0,1000801,0,040006e2,0,1000801,55dc55dc55dc55dc,55d555d555d555d5
121,121,0,04000001,007d0002,01,01,55d855d855d855d8,55d955d955d955d9,0,0,04000ae2,0,1000801,0,040007e2,0,1000801,55dc55dc55dc55dc,55d555d555d555d5
122,122,0,04000001,007d0002,01,01,55d855d855d855d8,55d955d955d955d9,0,0,04000be2,0,1000801,0,040008e2,0,1000801,55dc55dc55dc55dc,55d555d555d555d5
123,123,0,04000001,007d0002,01,01,55d855d855d855d8,55d955d955d955d9,0,0,04000ce2,0,1000801,0,040009e2,0,1000801,55dc55dc55dc55dc,55d555d555d555d5
124,124,0,04000001,007d0002,01,01,55d855d855d855d8,55d955d955d955d9,0,0,04000de2,0,1000801,0,04000ae2,0,1000801,55dc55dc55dc55dc,55d555d555d555d5
125,125,0,04000001,007d0002,01,01,55d855d855d855d8,55d955d955d955d9,0,0,04000ee2,0,1000801,0,04000be2,0,1000801,55dc55dc55dc55dc,55d555d555d555d5
126,126,0,04000001,007d0002,01,01,55d855d855d855d8,55d955d955d955d9,0,0,04000fe2,0,1000801,0,04000ce2,0,1000801,55dc55dc55dc55dc,55d555d555d555d5
127,127,0,04000001,007d0002,01,01,55d855d855d855d8,55d955d955d955d9,0,0,040010e2,0,1000901,0,04000de2,0,1000801,55dc55dc55dc55dc,55d555d555d555d5
128,128,0,04000001,007d0002,01,01,55d855d855d855d8,55d955d955d955d9,0,0,040011e1,0,1000a01,0,04000ee2,0,1000901,55dc55dc55dc55dc,55d555d555d555d5
129,129,0,04000001,007d0002,01,01,55d855d855d855d8,0043bef29dd955d9,0,0,038011e1,0,1000b01,0,04000fe2,0,1000a01,55dc55dc55dc55dc,55d555d555d555d5
130,130,0,04000001,007d0002,01,01,55d855d855d855d8,0000000000000000,0,1,000011e1,0,1000c01,0,040010e2,0,1000b01,55dc55dc55dc55dc,55d555d555d555d5
131,131,0,04000001,007d0002,01,01,55d855d855d855d8,0000000000000000,0,0,000000e1,0,1000d01,0,040011e1,0,1000c01,55dc55dc55dc55dc,55d555d555d555d5
132,132,0,04000001,007d0002,01,01,55d855d855d855d8,0000000000000000,0,0,000000e1,0,1000e01,0,038011e1,0,1000d01,55dc55dc55dc55dc,001ccd7ecfd555d5
133,133,0,04000001,007d0002,01,01,000348e0d5d855d8,0000222200000000,0,0,040001e2,0,1000f01,1,000011e1,0,1000e01,0000222200000000,5555550000000000
