Sample in Buffer,Sample in Window,TRIGGER,axi_stream_gen_mon_0/axi_stream_interface/tx_axis_tdata[63:0],axi_stream_gen_mon_0/axi_stream_interface/tx_axis_tkeep[7:0],axi_stream_gen_mon_0/axi_stream_interface/tx_axis_tvalid,axi_stream_gen_mon_0/axi_stream_interface/tx_axis_tlast,axi_stream_gen_mon_0/axi_stream_interface/tx_axis_tuser,axi_stream_gen_mon_0/axi_stream_interface/tx_axis_tready,axi_stream_gen_mon_0/axi_stream_interface/rx_axis_tdata[63:0],axi_stream_gen_mon_0/axi_stream_interface/rx_axis_tkeep[7:0],axi_stream_gen_mon_0/axi_stream_interface/rx_axis_tvalid,axi_stream_gen_mon_0/axi_stream_interface/rx_axis_tlast,axi_stream_gen_mon_0/axi_stream_interface/rx_axis_tuser,axi_stream_gen_mon_0/axi_stream_interface/rx_axis_tready,axi_stream_gen_mon_0/axi_stream_interface/bb_rx_axis_tdata[63:0],axi_stream_gen_mon_0/axi_stream_interface/bb_rx_axis_tkeep[7:0],axi_stream_gen_mon_0/axi_stream_interface/bb_rx_axis_tvalid,axi_stream_gen_mon_0/axi_stream_interface/bb_rx_axis_tlast,axi_stream_gen_mon_0/axi_stream_interface/bb_rx_axis_tuser,axi_stream_gen_mon_0/axi_stream_interface/n_0_0,axi_stream_gen_mon_0/axi_stream_interface/bb_tx_axis_tdata[63:0],axi_stream_gen_mon_0/axi_stream_interface/bb_tx_axis_tkeep[7:0],axi_stream_gen_mon_0/axi_stream_interface/bb_tx_axis_tvalid,axi_stream_gen_mon_0/axi_stream_interface/bb_tx_axis_tlast,axi_stream_gen_mon_0/axi_stream_interface/bb_tx_axis_tuser,axi_stream_gen_mon_0/axi_stream_interface/bb_tx_axis_tready
Radix - UNSIGNED,UNSIGNED,UNSIGNED,HEX,HEX,HEX,HEX,HEX,HEX,HEX,HEX,HEX,HEX,HEX,HEX,HEX,HEX,HEX,HEX,HEX,HEX,HEX,HEX,HEX,HEX,HEX,HEX
0,0,0,e39ce39ce39ce39c,ff,1,0,0,1,0000000000000000,00,0,0,0,1,0000000000000000,00,0,0,0,1,e447e447e447e447,ff,1,0,0,1
1,1,0,e39ce39ce39ce39c,1f,1,1,0,1,0000000000000000,00,0,0,0,1,0000000000000000,00,0,0,0,1,e447e447e447e447,ff,1,0,0,1
2,2,0,0000222200000000,ff,1,0,0,1,0000000000000000,00,0,0,0,1,0000000000000000,00,0,0,0,1,e447e447e447e447,ff,1,0,0,1
3,3,0,e39d4f0011110000,ff,1,0,0,1,0000000000000000,00,0,0,0,1,0000000000000000,00,0,0,0,1,e447e447e447e447,ff,1,0,0,1
4,4,0,e39de39de39de39d,ff,1,0,0,1,0000000000000000,00,0,0,0,1,0000000000000000,00,0,0,0,1,e447e447e447e447,1f,1,1,0,1
5,5,0,e39de39de39de39d,ff,1,0,0,1,0000000000000000,00,0,0,0,1,0000000000000000,00,0,0,0,1,0000222200000000,ff,1,0,0,1
6,6,0,e39de39de39de39d,ff,1,0,0,0,0000000000000000,00,0,0,0,1,0000000000000000,00,0,0,0,1,e4484f0011110000,ff,1,0,0,1
7,7,0,e39de39de39de39d,ff,1,0,0,0,0000000000000000,00,0,0,0,1,0000000000000000,00,0,0,0,1,e448e448e448e448,ff,1,0,0,0
8,8,0,e39de39de39de39d,ff,1,0,0,0,0000000000000000,00,0,0,0,1,0000000000000000,00,0,0,0,1,e448e448e448e448,ff,1,0,0,0
9,9,0,e39de39de39de39d,ff,1,0,0,1,0000000000000000,00,0,0,0,1,0000000000000000,00,0,0,0,1,e448e448e448e448,ff,1,0,0,0
10,10,0,e39de39de39de39d,ff,1,0,0,1,0000000000000000,00,0,0,0,1,0000000000000000,00,0,0,0,1,e448e448e448e448,ff,1,0,0,1
11,11,0,e39de39de39de39d,ff,1,0,0,1,0000000000000000,00,0,0,0,1,0000000000000000,00,0,0,0,1,e448e448e448e448,ff,1,0,0,1
12,12,0,e39de39de39de39d,ff,1,0,0,1,0000000000000000,00,0,0,0,1,0000000000000000,00,0,0,0,1,e448e448e448e448,ff,1,0,0,1
13,13,0,e39de39de39de39d,ff,1,0,0,1,0000000000000000,00,0,0,0,1,0000000000000000,00,0,0,0,1,e448e448e448e448,ff,1,0,0,1
14,14,0,e39de39de39de39d,ff,1,0,0,1,0000000000000000,00,0,0,0,1,0000000000000000,00,0,0,0,1,e448e448e448e448,ff,1,0,0,1
15,15,0,e39de39de39de39d,ff,1,0,0,1,0000000000000000,00,0,0,0,1,0000000000000000,00,0,0,0,1,e448e448e448e448,ff,1,0,0,1
16,16,0,e39de39de39de39d,1f,1,1,0,1,0000000000000000,00,0,0,0,1,0000000000000000,00,0,0,0,1,e448e448e448e448,ff,1,0,0,1
17,17,0,0000222200000000,ff,1,0,0,1,0000000000000000,00,0,0,0,1,0000000000000000,00,0,0,0,1,e448e448e448e448,ff,1,0,0,1
18,18,0,e39e4f0011110000,ff,1,0,0,1,0000000000000000,00,0,0,0,1,0000000000000000,00,0,0,0,1,e448e448e448e448,ff,1,0,0,1
19,19,0,e39ee39ee39ee39e,ff,1,0,0,1,0000000000000000,00,0,0,0,1,0000000000000000,00,0,0,0,1,e448e448e448e448,1f,1,1,0,1
20,20,0,e39ee39ee39ee39e,ff,1,0,0,1,0000000000000000,00,0,0,0,1,0000000000000000,00,0,0,0,1,0000222200000000,ff,1,0,0,1
21,21,0,e39ee39ee39ee39e,ff,1,0,0,0,0000000000000000,00,0,0,0,1,0000000000000000,00,0,0,0,1,e4494f0011110000,ff,1,0,0,1
22,22,0,e39ee39ee39ee39e,ff,1,0,0,0,0000000000000000,00,0,0,0,1,0000000000000000,00,0,0,0,1,e449e449e449e449,ff,1,0,0,0
23,23,0,e39ee39ee39ee39e,ff,1,0,0,0,0000000000000000,00,0,0,0,1,0000000000000000,00,0,0,0,1,e449e449e449e449,ff,1,0,0,0
24,24,0,e39ee39ee39ee39e,ff,1,0,0,1,0000000000000000,00,0,0,0,1,0000000000000000,00,0,0,0,1,e449e449e449e449,ff,1,0,0,0
25,25,0,e39ee39ee39ee39e,ff,1,0,0,1,0000000000000000,00,0,0,0,1,0000000000000000,00,0,0,0,1,e449e449e449e449,ff,1,0,0,1
26,26,0,e39ee39ee39ee39e,ff,1,0,0,1,0000000000000000,00,0,0,0,1,0000000000000000,00,0,0,0,1,e449e449e449e449,ff,1,0,0,1
27,27,0,e39ee39ee39ee39e,ff,1,0,0,1,0000000000000000,00,0,0,0,1,0000000000000000,00,0,0,0,1,e449e449e449e449,ff,1,0,0,1
28,28,0,e39ee39ee39ee39e,ff,1,0,0,1,0000000000000000,00,0,0,0,1,0000000000000000,00,0,0,0,1,e449e449e449e449,ff,1,0,0,1
29,29,0,e39ee39ee39ee39e,ff,1,0,0,1,0000000000000000,00,0,0,0,1,0000000000000000,00,0,0,0,1,e449e449e449e449,ff,1,0,0,1
30,30,0,e39ee39ee39ee39e,ff,1,0,0,1,0000000000000000,00,0,0,0,1,0000000000000000,00,0,0,0,1,e449e449e449e449,ff,1,0,0,1
31,31,0,e39ee39ee39ee39e,1f,1,1,0,1,0000000000000000,00,0,0,0,1,0000000000000000,00,0,0,0,1,e449e449e449e449,ff,1,0,0,1
32,32,0,0000222200000000,ff,1,0,0,1,0000000000000000,00,0,0,0,1,0000000000000000,00,0,0,0,1,e449e449e449e449,ff,1,0,0,1
33,33,0,e39f4f0011110000,ff,1,0,0,1,0000000000000000,00,0,0,0,1,0000000000000000,00,0,0,0,1,e449e449e449e449,ff,1,0,0,1
34,34,0,e39fe39fe39fe39f,ff,1,0,0,1,0000000000000000,00,0,0,0,1,0000000000000000,00,0,0,0,1,e449e449e449e449,1f,1,1,0,1
35,35,0,e39fe39fe39fe39f,ff,1,0,0,1,0000000000000000,00,0,0,0,1,0000000000000000,00,0,0,0,1,0000222200000000,ff,1,0,0,1
36,36,0,e39fe39fe39fe39f,ff,1,0,0,0,0000000000000000,00,0,0,0,1,0000000000000000,00,0,0,0,1,e44a4f0011110000,ff,1,0,0,1
37,37,0,e39fe39fe39fe39f,ff,1,0,0,0,0000000000000000,00,0,0,0,1,0000000000000000,00,0,0,0,1,e44ae44ae44ae44a,ff,1,0,0,0
38,38,0,e39fe39fe39fe39f,ff,1,0,0,0,0000000000000000,00,0,0,0,1,0000000000000000,00,0,0,0,1,e44ae44ae44ae44a,ff,1,0,0,0
39,39,0,e39fe39fe39fe39f,ff,1,0,0,1,0000000000000000,00,0,0,0,1,0000000000000000,00,0,0,0,1,e44ae44ae44ae44a,ff,1,0,0,0
40,40,0,e39fe39fe39fe39f,ff,1,0,0,1,0000000000000000,00,0,0,0,1,0000000000000000,00,0,0,0,1,e44ae44ae44ae44a,ff,1,0,0,1
41,41,0,e39fe39fe39fe39f,ff,1,0,0,1,0000000000000000,00,0,0,0,1,0000000000000000,00,0,0,0,1,e44ae44ae44ae44a,ff,1,0,0,1
42,42,0,e39fe39fe39fe39f,ff,1,0,0,1,0000000000000000,00,0,0,0,1,0000000000000000,00,0,0,0,1,e44ae44ae44ae44a,ff,1,0,0,1
43,43,0,e39fe39fe39fe39f,ff,1,0,0,1,0000000000000000,00,0,0,0,1,0000000000000000,00,0,0,0,1,e44ae44ae44ae44a,ff,1,0,0,1
44,44,0,e39fe39fe39fe39f,ff,1,0,0,1,0000000000000000,00,0,0,0,1,0000000000000000,00,0,0,0,1,e44ae44ae44ae44a,ff,1,0,0,1
45,45,0,e39fe39fe39fe39f,ff,1,0,0,1,0000000000000000,00,0,0,0,1,0000000000000000,00,0,0,0,1,e44ae44ae44ae44a,ff,1,0,0,1
46,46,0,e39fe39fe39fe39f,1f,1,1,0,1,0000000000000000,00,0,0,0,1,0000000000000000,00,0,0,0,1,e44ae44ae44ae44a,ff,1,0,0,1
47,47,0,0000222200000000,ff,1,0,0,1,0000000000000000,00,0,0,0,1,0000000000000000,00,0,0,0,1,e44ae44ae44ae44a,ff,1,0,0,1
48,48,0,e3a04f0011110000,ff,1,0,0,1,0000000000000000,00,0,0,0,1,0000000000000000,00,0,0,0,1,e44ae44ae44ae44a,ff,1,0,0,1
49,49,0,e3a0e3a0e3a0e3a0,ff,1,0,0,1,0000000000000000,00,0,0,0,1,0000000000000000,00,0,0,0,1,e44ae44ae44ae44a,1f,1,1,0,1
50,50,0,e3a0e3a0e3a0e3a0,ff,1,0,0,1,0000000000000000,00,0,0,0,1,0000000000000000,00,0,0,0,1,0000222200000000,ff,1,0,0,1
51,51,0,e3a0e3a0e3a0e3a0,ff,1,0,0,0,0000000000000000,00,0,0,0,1,0000000000000000,00,0,0,0,1,e44b4f0011110000,ff,1,0,0,1
52,52,0,e3a0e3a0e3a0e3a0,ff,1,0,0,0,0000000000000000,00,0,0,0,1,0000000000000000,00,0,0,0,1,e44be44be44be44b,ff,1,0,0,0
53,53,0,e3a0e3a0e3a0e3a0,ff,1,0,0,0,0000000000000000,00,0,0,0,1,0000000000000000,00,0,0,0,1,e44be44be44be44b,ff,1,0,0,0
54,54,0,e3a0e3a0e3a0e3a0,ff,1,0,0,1,0000000000000000,00,0,0,0,1,0000000000000000,00,0,0,0,1,e44be44be44be44b,ff,1,0,0,0
55,55,0,e3a0e3a0e3a0e3a0,ff,1,0,0,1,0000000000000000,00,0,0,0,1,0000000000000000,00,0,0,0,1,e44be44be44be44b,ff,1,0,0,1
56,56,0,e3a0e3a0e3a0e3a0,ff,1,0,0,1,0000000000000000,00,0,0,0,1,0000000000000000,00,0,0,0,1,e44be44be44be44b,ff,1,0,0,1
57,57,0,e3a0e3a0e3a0e3a0,ff,1,0,0,1,0000000000000000,00,0,0,0,1,0000000000000000,00,0,0,0,1,e44be44be44be44b,ff,1,0,0,1
58,58,0,e3a0e3a0e3a0e3a0,ff,1,0,0,1,0000000000000000,00,0,0,0,1,0000000000000000,00,0,0,0,1,e44be44be44be44b,ff,1,0,0,1
59,59,0,e3a0e3a0e3a0e3a0,ff,1,0,0,1,0000000000000000,00,0,0,0,1,0000000000000000,00,0,0,0,1,e44be44be44be44b,ff,1,0,0,1
60,60,0,e3a0e3a0e3a0e3a0,ff,1,0,0,1,0000000000000000,00,0,0,0,1,0000000000000000,00,0,0,0,1,e44be44be44be44b,ff,1,0,0,1
61,61,0,e3a0e3a0e3a0e3a0,1f,1,1,0,1,0000000000000000,00,0,0,0,1,0000000000000000,00,0,0,0,1,e44be44be44be44b,ff,1,0,0,1
62,62,0,0000222200000000,ff,1,0,0,1,0000000000000000,00,0,0,0,1,0000000000000000,00,0,0,0,1,e44be44be44be44b,ff,1,0,0,1
63,63,0,e3a14f0011110000,ff,1,0,0,1,0000000000000000,00,0,0,0,1,0000000000000000,00,0,0,0,1,e44be44be44be44b,ff,1,0,0,1
64,64,0,e3a1e3a1e3a1e3a1,ff,1,0,0,1,0000000000000000,00,0,0,0,1,0000000000000000,00,0,0,0,1,e44be44be44be44b,1f,1,1,0,1
65,65,0,e3a1e3a1e3a1e3a1,ff,1,0,0,1,0000000000000000,00,0,0,0,1,0000000000000000,00,0,0,0,1,0000222200000000,ff,1,0,0,1
66,66,0,e3a1e3a1e3a1e3a1,ff,1,0,0,0,0000000000000000,00,0,0,0,1,0000000000000000,00,0,0,0,1,e44c4f0011110000,ff,1,0,0,1
67,67,0,e3a1e3a1e3a1e3a1,ff,1,0,0,0,0000000000000000,00,0,0,0,1,0000000000000000,00,0,0,0,1,e44ce44ce44ce44c,ff,1,0,0,0
68,68,0,e3a1e3a1e3a1e3a1,ff,1,0,0,0,0000000000000000,00,0,0,0,1,0000000000000000,00,0,0,0,1,e44ce44ce44ce44c,ff,1,0,0,0
69,69,0,e3a1e3a1e3a1e3a1,ff,1,0,0,1,0000000000000000,00,0,0,0,1,0000000000000000,00,0,0,0,1,e44ce44ce44ce44c,ff,1,0,0,0
70,70,0,e3a1e3a1e3a1e3a1,ff,1,0,0,1,0000000000000000,00,0,0,0,1,0000000000000000,00,0,0,0,1,e44ce44ce44ce44c,ff,1,0,0,1
71,71,0,e3a1e3a1e3a1e3a1,ff,1,0,0,1,0000000000000000,00,0,0,0,1,0000000000000000,00,0,0,0,1,e44ce44ce44ce44c,ff,1,0,0,1
72,72,0,e3a1e3a1e3a1e3a1,ff,1,0,0,1,0000000000000000,00,0,0,0,1,0000000000000000,00,0,0,0,1,e44ce44ce44ce44c,ff,1,0,0,1
73,73,0,e3a1e3a1e3a1e3a1,ff,1,0,0,1,0000000000000000,00,0,0,0,1,0000000000000000,00,0,0,0,1,e44ce44ce44ce44c,ff,1,0,0,1
74,74,0,e3a1e3a1e3a1e3a1,ff,1,0,0,1,0000000000000000,00,0,0,0,1,0000000000000000,00,0,0,0,1,e44ce44ce44ce44c,ff,1,0,0,1
75,75,0,e3a1e3a1e3a1e3a1,ff,1,0,0,1,0000000000000000,00,0,0,0,1,0000000000000000,00,0,0,0,1,e44ce44ce44ce44c,ff,1,0,0,1
76,76,0,e3a1e3a1e3a1e3a1,1f,1,1,0,1,0000000000000000,00,0,0,0,1,0000000000000000,00,0,0,0,1,e44ce44ce44ce44c,ff,1,0,0,1
77,77,0,0000222200000000,ff,1,0,0,1,0000000000000000,00,0,0,0,1,0000000000000000,00,0,0,0,1,e44ce44ce44ce44c,ff,1,0,0,1
78,78,0,e3a24f0011110000,ff,1,0,0,1,0000000000000000,00,0,0,0,1,0000000000000000,00,0,0,0,1,e44ce44ce44ce44c,ff,1,0,0,1
79,79,0,e3a2e3a2e3a2e3a2,ff,1,0,0,1,0000000000000000,00,0,0,0,1,0000000000000000,00,0,0,0,1,e44ce44ce44ce44c,1f,1,1,0,1
80,80,0,e3a2e3a2e3a2e3a2,ff,1,0,0,1,0000000000000000,00,0,0,0,1,0000000000000000,00,0,0,0,1,0000222200000000,ff,1,0,0,1
81,81,0,e3a2e3a2e3a2e3a2,ff,1,0,0,0,0000000000000000,00,0,0,0,1,0000000000000000,00,0,0,0,1,e44d4f0011110000,ff,1,0,0,1
82,82,0,e3a2e3a2e3a2e3a2,ff,1,0,0,0,0000000000000000,00,0,0,0,1,0000000000000000,00,0,0,0,1,e44de44de44de44d,ff,1,0,0,0
83,83,0,e3a2e3a2e3a2e3a2,ff,1,0,0,0,0000000000000000,00,0,0,0,1,0000000000000000,00,0,0,0,1,e44de44de44de44d,ff,1,0,0,0
84,84,0,e3a2e3a2e3a2e3a2,ff,1,0,0,1,0000000000000000,00,0,0,0,1,0000000000000000,00,0,0,0,1,e44de44de44de44d,ff,1,0,0,0
85,85,0,e3a2e3a2e3a2e3a2,ff,1,0,0,1,0000000000000000,00,0,0,0,1,0000000000000000,00,0,0,0,1,e44de44de44de44d,ff,1,0,0,1
86,86,0,e3a2e3a2e3a2e3a2,ff,1,0,0,1,0000000000000000,00,0,0,0,1,0000000000000000,00,0,0,0,1,e44de44de44de44d,ff,1,0,0,1
87,87,0,e3a2e3a2e3a2e3a2,ff,1,0,0,1,0000000000000000,00,0,0,0,1,0000000000000000,00,0,0,0,1,e44de44de44de44d,ff,1,0,0,1
88,88,0,e3a2e3a2e3a2e3a2,ff,1,0,0,1,0000000000000000,00,0,0,0,1,0000000000000000,00,0,0,0,1,e44de44de44de44d,ff,1,0,0,1
89,89,0,e3a2e3a2e3a2e3a2,ff,1,0,0,1,0000000000000000,00,0,0,0,1,0000000000000000,00,0,0,0,1,e44de44de44de44d,ff,1,0,0,1
90,90,0,e3a2e3a2e3a2e3a2,ff,1,0,0,1,0000000000000000,00,0,0,0,1,0000000000000000,00,0,0,0,1,e44de44de44de44d,ff,1,0,0,1
91,91,0,e3a2e3a2e3a2e3a2,1f,1,1,0,1,0000000000000000,00,0,0,0,1,0000000000000000,00,0,0,0,1,e44de44de44de44d,ff,1,0,0,1
92,92,0,0000222200000000,ff,1,0,0,1,0000000000000000,00,0,0,0,1,0000000000000000,00,0,0,0,1,e44de44de44de44d,ff,1,0,0,1
93,93,0,e3a34f0011110000,ff,1,0,0,1,0000000000000000,00,0,0,0,1,0000000000000000,00,0,0,0,1,e44de44de44de44d,ff,1,0,0,1
94,94,0,e3a3e3a3e3a3e3a3,ff,1,0,0,1,0000000000000000,00,0,0,0,1,0000000000000000,00,0,0,0,1,e44de44de44de44d,1f,1,1,0,1
95,95,0,e3a3e3a3e3a3e3a3,ff,1,0,0,1,0000000000000000,00,0,0,0,1,0000000000000000,00,0,0,0,1,0000222200000000,ff,1,0,0,1
96,96,0,e3a3e3a3e3a3e3a3,ff,1,0,0,0,0000000000000000,00,0,0,0,1,0000000000000000,00,0,0,0,1,e44e4f0011110000,ff,1,0,0,1
97,97,0,e3a3e3a3e3a3e3a3,ff,1,0,0,0,0000000000000000,00,0,0,0,1,0000000000000000,00,0,0,0,1,e44ee44ee44ee44e,ff,1,0,0,0
98,98,0,e3a3e3a3e3a3e3a3,ff,1,0,0,0,0000000000000000,00,0,0,0,1,0000000000000000,00,0,0,0,1,e44ee44ee44ee44e,ff,1,0,0,0
99,99,0,e3a3e3a3e3a3e3a3,ff,1,0,0,1,0000000000000000,00,0,0,0,1,0000000000000000,00,0,0,0,1,e44ee44ee44ee44e,ff,1,0,0,0
100,100,0,e3a3e3a3e3a3e3a3,ff,1,0,0,1,0000000000000000,00,0,0,0,1,0000000000000000,00,0,0,0,1,e44ee44ee44ee44e,ff,1,0,0,1
101,101,0,e3a3e3a3e3a3e3a3,ff,1,0,0,1,0000000000000000,00,0,0,0,1,0000000000000000,00,0,0,0,1,e44ee44ee44ee44e,ff,1,0,0,1
102,102,0,e3a3e3a3e3a3e3a3,ff,1,0,0,1,0000000000000000,00,0,0,0,1,0000000000000000,00,0,0,0,1,e44ee44ee44ee44e,ff,1,0,0,1
103,103,0,e3a3e3a3e3a3e3a3,ff,1,0,0,1,0000000000000000,00,0,0,0,1,0000000000000000,00,0,0,0,1,e44ee44ee44ee44e,ff,1,0,0,1
104,104,0,e3a3e3a3e3a3e3a3,ff,1,0,0,1,0000000000000000,00,0,0,0,1,0000000000000000,00,0,0,0,1,e44ee44ee44ee44e,ff,1,0,0,1
105,105,0,e3a3e3a3e3a3e3a3,ff,1,0,0,1,0000000000000000,00,0,0,0,1,0000000000000000,00,0,0,0,1,e44ee44ee44ee44e,ff,1,0,0,1
106,106,0,e3a3e3a3e3a3e3a3,1f,1,1,0,1,0000000000000000,00,0,0,0,1,0000000000000000,00,0,0,0,1,e44ee44ee44ee44e,ff,1,0,0,1
107,107,0,0000222200000000,ff,1,0,0,1,0000000000000000,00,0,0,0,1,0000000000000000,00,0,0,0,1,e44ee44ee44ee44e,ff,1,0,0,1
108,108,0,e3a44f0011110000,ff,1,0,0,1,0000000000000000,00,0,0,0,1,0000000000000000,00,0,0,0,1,e44ee44ee44ee44e,ff,1,0,0,1
109,109,0,e3a4e3a4e3a4e3a4,ff,1,0,0,1,0000000000000000,00,0,0,0,1,0000000000000000,00,0,0,0,1,e44ee44ee44ee44e,1f,1,1,0,1
110,110,0,e3a4e3a4e3a4e3a4,ff,1,0,0,1,0000000000000000,00,0,0,0,1,0000000000000000,00,0,0,0,1,0000222200000000,ff,1,0,0,1
111,111,0,e3a4e3a4e3a4e3a4,ff,1,0,0,0,0000000000000000,00,0,0,0,1,0000000000000000,00,0,0,0,1,e44f4f0011110000,ff,1,0,0,1
112,112,0,e3a4e3a4e3a4e3a4,ff,1,0,0,0,0000000000000000,00,0,0,0,1,0000000000000000,00,0,0,0,1,e44fe44fe44fe44f,ff,1,0,0,0
113,113,0,e3a4e3a4e3a4e3a4,ff,1,0,0,0,0000000000000000,00,0,0,0,1,0000000000000000,00,0,0,0,1,e44fe44fe44fe44f,ff,1,0,0,0
114,114,0,e3a4e3a4e3a4e3a4,ff,1,0,0,1,0000000000000000,00,0,0,0,1,0000000000000000,00,0,0,0,1,e44fe44fe44fe44f,ff,1,0,0,0
115,115,0,e3a4e3a4e3a4e3a4,ff,1,0,0,1,0000000000000000,00,0,0,0,1,0000000000000000,00,0,0,0,1,e44fe44fe44fe44f,ff,1,0,0,1
116,116,0,e3a4e3a4e3a4e3a4,ff,1,0,0,1,0000000000000000,00,0,0,0,1,0000000000000000,00,0,0,0,1,e44fe44fe44fe44f,ff,1,0,0,1
117,117,0,e3a4e3a4e3a4e3a4,ff,1,0,0,1,0000000000000000,00,0,0,0,1,0000000000000000,00,0,0,0,1,e44fe44fe44fe44f,ff,1,0,0,1
118,118,0,e3a4e3a4e3a4e3a4,ff,1,0,0,1,0000000000000000,00,0,0,0,1,0000000000000000,00,0,0,0,1,e44fe44fe44fe44f,ff,1,0,0,1
119,119,0,e3a4e3a4e3a4e3a4,ff,1,0,0,1,0000000000000000,00,0,0,0,1,0000000000000000,00,0,0,0,1,e44fe44fe44fe44f,ff,1,0,0,1
120,120,0,e3a4e3a4e3a4e3a4,ff,1,0,0,1,0000000000000000,00,0,0,0,1,0000000000000000,00,0,0,0,1,e44fe44fe44fe44f,ff,1,0,0,1
121,121,0,e3a4e3a4e3a4e3a4,1f,1,1,0,1,0000000000000000,00,0,0,0,1,0000000000000000,00,0,0,0,1,e44fe44fe44fe44f,ff,1,0,0,1
122,122,0,0000222200000000,ff,1,0,0,1,0000000000000000,00,0,0,0,1,0000000000000000,00,0,0,0,1,e44fe44fe44fe44f,ff,1,0,0,1
123,123,0,e3a54f0011110000,ff,1,0,0,1,0000000000000000,00,0,0,0,1,0000000000000000,00,0,0,0,1,e44fe44fe44fe44f,ff,1,0,0,1
124,124,0,e3a5e3a5e3a5e3a5,ff,1,0,0,1,0000000000000000,00,0,0,0,1,0000000000000000,00,0,0,0,1,e44fe44fe44fe44f,1f,1,1,0,1
125,125,0,e3a5e3a5e3a5e3a5,ff,1,0,0,1,0000000000000000,00,0,0,0,1,0000000000000000,00,0,0,0,1,0000222200000000,ff,1,0,0,1
126,126,0,e3a5e3a5e3a5e3a5,ff,1,0,0,0,0000000000000000,00,0,0,0,1,0000000000000000,00,0,0,0,1,e4504f0011110000,ff,1,0,0,1
127,127,0,e3a5e3a5e3a5e3a5,ff,1,0,0,0,0000000000000000,00,0,0,0,1,0000000000000000,00,0,0,0,1,e450e450e450e450,ff,1,0,0,0
128,128,0,e3a5e3a5e3a5e3a5,ff,1,0,0,0,0000000000000000,00,0,0,0,1,0000000000000000,00,0,0,0,1,e450e450e450e450,ff,1,0,0,0
129,129,0,e3a5e3a5e3a5e3a5,ff,1,0,0,1,0000000000000000,00,0,0,0,1,0000000000000000,00,0,0,0,1,e450e450e450e450,ff,1,0,0,0
130,130,0,e3a5e3a5e3a5e3a5,ff,1,0,0,1,0000000000000000,00,0,0,0,1,0000000000000000,00,0,0,0,1,e450e450e450e450,ff,1,0,0,1
131,131,0,e3a5e3a5e3a5e3a5,ff,1,0,0,1,0000000000000000,00,0,0,0,1,0000000000000000,00,0,0,0,1,e450e450e450e450,ff,1,0,0,1
132,132,0,e3a5e3a5e3a5e3a5,ff,1,0,0,1,0000000000000000,00,0,0,0,1,0000000000000000,00,0,0,0,1,e450e450e450e450,ff,1,0,0,1
133,133,0,e3a5e3a5e3a5e3a5,ff,1,0,0,1,0000000000000000,00,0,0,0,1,0000000000000000,00,0,0,0,1,e450e450e450e450,ff,1,0,0,1
134,134,0,e3a5e3a5e3a5e3a5,ff,1,0,0,1,0000000000000000,00,0,0,0,1,0000000000000000,00,0,0,0,1,e450e450e450e450,ff,1,0,0,1
135,135,0,e3a5e3a5e3a5e3a5,ff,1,0,0,1,0000000000000000,00,0,0,0,1,0000000000000000,00,0,0,0,1,e450e450e450e450,ff,1,0,0,1
136,136,0,e3a5e3a5e3a5e3a5,1f,1,1,0,1,0000000000000000,00,0,0,0,1,0000000000000000,00,0,0,0,1,e450e450e450e450,ff,1,0,0,1
137,137,0,0000222200000000,ff,1,0,0,1,0000000000000000,00,0,0,0,1,0000000000000000,00,0,0,0,1,e450e450e450e450,ff,1,0,0,1
138,138,0,e3a64f0011110000,ff,1,0,0,1,0000000000000000,00,0,0,0,1,0000000000000000,00,0,0,0,1,e450e450e450e450,ff,1,0,0,1
139,139,0,e3a6e3a6e3a6e3a6,ff,1,0,0,1,0000000000000000,00,0,0,0,1,0000000000000000,00,0,0,0,1,e450e450e450e450,1f,1,1,0,1
140,140,0,e3a6e3a6e3a6e3a6,ff,1,0,0,1,0000000000000000,00,0,0,0,1,0000000000000000,00,0,0,0,1,0000222200000000,ff,1,0,0,1
141,141,0,e3a6e3a6e3a6e3a6,ff,1,0,0,0,0000000000000000,00,0,0,0,1,0000000000000000,00,0,0,0,1,e4514f0011110000,ff,1,0,0,1
142,142,0,e3a6e3a6e3a6e3a6,ff,1,0,0,0,0000000000000000,00,0,0,0,1,0000000000000000,00,0,0,0,1,e451e451e451e451,ff,1,0,0,0
143,143,0,e3a6e3a6e3a6e3a6,ff,1,0,0,0,0000000000000000,00,0,0,0,1,0000000000000000,00,0,0,0,1,e451e451e451e451,ff,1,0,0,0
144,144,0,e3a6e3a6e3a6e3a6,ff,1,0,0,1,0000000000000000,00,0,0,0,1,0000000000000000,00,0,0,0,1,e451e451e451e451,ff,1,0,0,0
145,145,0,e3a6e3a6e3a6e3a6,ff,1,0,0,1,0000000000000000,00,0,0,0,1,0000000000000000,00,0,0,0,1,e451e451e451e451,ff,1,0,0,1
146,146,0,e3a6e3a6e3a6e3a6,ff,1,0,0,1,0000000000000000,00,0,0,0,1,0000000000000000,00,0,0,0,1,e451e451e451e451,ff,1,0,0,1
147,147,0,e3a6e3a6e3a6e3a6,ff,1,0,0,1,0000000000000000,00,0,0,0,1,0000000000000000,00,0,0,0,1,e451e451e451e451,ff,1,0,0,1
148,148,0,e3a6e3a6e3a6e3a6,ff,1,0,0,1,0000000000000000,00,0,0,0,1,0000000000000000,00,0,0,0,1,e451e451e451e451,ff,1,0,0,1
149,149,0,e3a6e3a6e3a6e3a6,ff,1,0,0,1,0000000000000000,00,0,0,0,1,0000000000000000,00,0,0,0,1,e451e451e451e451,ff,1,0,0,1
150,150,0,e3a6e3a6e3a6e3a6,ff,1,0,0,1,0000000000000000,00,0,0,0,1,0000000000000000,00,0,0,0,1,e451e451e451e451,ff,1,0,0,1
